10/21/2021									
Index	Time (s)	Frequency (Hz)	Z' (Ω)	-Z'' (Ω)	Z (Ω)	-Phase (°)	OCP value (V)	A ratio	meas start time (s)
1	44.8249438868279	10000	80.3284443300574	30.2180522259249	85.8241786958422	20.6153571321985	0.00281124114990234	1.51678001	3717700500.576557
2	47.0379858812405	6240.1	82.0187590727985	40.6749814071348	91.5507015391609	26.3778663851303			
3	49.5460318749083	3893.8	82.3084913267434	60.5743185612673	102.195576291963	36.3509320562938			
4	51.9540738688286	2429.8	81.6307322122525	95.4268031530406	125.578068154904	49.4554033715305			
5	66.5553458319639	2069.01	81.9202930120601	112.957791119377	139.536364370549	54.0492798159666			
6	66.5553458319639	1609.23	80.9523979319954	145.390835743433	166.408490916522	60.8913064667902			
7	54.4121198626226	1516.2	81.9692529840625	154.847595815892	175.204841156651	62.1052971746536			
8	68.9633908258842	1291.05	83.0616547374256	183.860831077155	201.752431688199	65.6882733729907			
9	66.5553458319639	1149.45	84.251644294154	206.807222868312	223.310472205789	67.834402704175			
10	68.9633908258842	1004.15	87.1631458886902	238.471038538284	253.901260774225	69.9222220262552			
11	56.9001658563409	946.12	89.800694425477	252.92147555043	268.39045719605	70.452407559522			
12	71.4814378195267	805.626	96.9648649134972	297.779651602912	313.169133115709	71.9633919046466			
13	68.9633908258842	717.25	102.607182510077	336.866337119587	352.146507844425	73.0596228060888			
14	66.5553458319639	689.67	106.242037907786	349.718304048331	365.500017517428	73.1015759176248			
15	71.4814378195267	626.598	113.139551424315	383.757734611549	400.088186492283	73.5734156207438			
16	59.4232128499708	590.38	119.471358719708	408.199559581391	425.323742573553	73.6863651781373			
17	73.9044798134091	502.713	138.586253664419	477.506553877007	497.21087950711	73.8157383975387			
18	71.4814378195267	447.57	155.535649588347	533.968556072446	556.159830594553	73.7600874260125			
19	68.9633908258842	430.35	162.939631002666	554.378405469462	577.827603876924	73.6211940250961			
20	73.9044798134091	390.999	182.660913561871	606.567139382669	633.473522668573	73.2409124622639			
21	62.0812618432599	368.4	196.412016175624	641.375972317238	670.776280114358	72.9735583769931			
22	76.6575318064583	313.695	241.173929381534	742.02569842414	780.235221798633	71.9947504966543			
23	73.9044798134091	279.285	282.568415903923	821.493535180029	868.732719545565	71.0183645636614			
24	71.4814378195267	268.542	301.847628219586	849.427103947899	901.464583654346	70.4371085103526			
25	76.6575318064583	243.985	342.303184241119	922.280139531375	983.754098195083	69.6376515107074			
26	66.5553458319639	229.89	373.448743585863	967.794258198328	1037.34742988427	68.8995867725321			
27	79.775588798586	195.75	469.999688782822	1100.20132586199	1196.38733898534	66.8681047418051			
28	76.6575318064583	174.275	559.185335356195	1198.07998545552	1322.15123598872	64.979912241121			
29	73.9044798134091	167.571	592.794522207809	1230.37264463565	1365.73137557402	64.2751957148473			
30	79.775588798586	152.25	679.657836670245	1312.78825607897	1478.29218365184	62.6284557592562			
31	68.9633908258842	143.45	741.327739721377	1363.03137994362	1551.58672345165	61.4590425317105			
32	83.2286527898679	122.148	925.934372127931	1490.84415106695	1754.98454245571	58.1563865386559			
33	79.775588798586	108.75	1081.04983208756	1574.41001871295	1909.82607754744	55.5250257237631			
34	76.6575318064583	104.565	1136.69057427646	1599.71858005976	1962.43853331445	54.6040516243116			
35	83.2286527898679	95.004	1281.07584065943	1653.52038821024	2091.71818937165	52.233029293764			
36	71.4814378195267	89.514	1375.27700799769	1682.16171562688	2172.79886005305	50.731759701833			
37	89.1147637750068	76.2219	1640.63068131929	1732.71449511279	2386.20379558415	46.5636419410512			
38	83.2286527898679	67.86	1840.99819053177	1743.9793395604	2535.89003593507	43.4498050015623			
39	79.775588798586	65.25	1907.43919180244	1743.75102869165	2584.37457046906	42.4330657529413			
40	89.1147637750068	59.2837	2073.83095805048	1727.22250351414	2698.90207662565	39.7897521896555			
41	73.9044798134091	55.857	2169.95746326346	1712.99468171911	2764.60958762187	38.2880545457781			
42	92.7328287658721	47.5632	2428.86280481946	1647.70835620146	2935.01573279115	34.1524489263779			
43	89.1147637750068	42.3455	2598.88255529418	1576.39625501761	3039.60781829596	31.2396156946444			
44	83.2286527898679	40.716	2652.63705612724	1550.98409685871	3072.78945263876	30.3146204221589			
45	92.7328287658721	36.9936	2779.14244258405	1481.82947525687	3149.51604376166	28.0663900579335			
46	76.6575318064583	34.855	2849.97958823353	1437.06080579103	3191.79062798432	26.7588618675972			
47	97.0209087550458	29.6793	3023.35260540517	1305.66687196379	3293.23958392855	23.3576132762744			
48	92.7328287658721	26.424	3126.28580867043	1206.8384309064	3351.13741225375	21.108057458152			
49	89.1147637750068	25.4073	3154.57717560309	1172.37874540334	3365.38691379008	20.3872662791118			
50	97.0209087550458	23.0839	3230.54013955731	1095.21024996258	3411.13985126879	18.7275678614691			
51	79.775588798586	21.75	3264.99943413335	1046.59660277644	3428.64196932755	17.7732690380604			
52	101.678996743285	18.5202	3353.39918759271	918.018792771427	3476.78653575812	15.3100552352143			
53	133.736588662348	18	3370.3479551159	897.543896982156	3487.81169009507	14.9121229267081			
54	97.0209087550458	16.4885	3410.23797486967	836.134577974212	3511.24537418382	13.7762265392567			
55	92.7328287658721	15.8544	3422.1741657856	807.274540129936	3516.10127898961	13.2731496420675			
56	101.678996743285	14.4046	3454.37897302277	740.861192950464	3532.93212452233	12.1048604098953			
57	133.736588662348	14	3468.01335018692	722.384802165165	3542.45062061194	11.7664208411443			
58	83.2286527898679	13.572	3475.01076653919	704.610785619679	3545.72646812679	11.4621844084912			
59	139.239691648454	13.0347	3487.79447898997	678.904394800688	3553.25505768339	11.0149711089763			
60	107.132095729517	11.5569	3514.56021235372	608.860887938757	3566.90973632939	9.82834814706359			
61	101.678996743285	10.289	3538.62165656867	546.625741253229	3580.59253885966	8.78131119489257			
62	139.239691648454	10.1381	3545.06244316691	539.610693838317	3585.89562408852	8.65482703199902			
63	133.736588662348	10	3548.84087878329	532.389759388036	3588.55269416858	8.53177026503475			
64	97.0209087550458	9.8931	3551.95454998494	529.663050375811	3591.22876911123	8.48137883967515			
65	145.627808632325	9.4392	3557.08006863021	505.484375807928	3592.81687104035	8.08795223278017			
66	107.132095729517	8.9887	3562.28127153649	483.156702041853	3594.89753070481	7.72396602766071			
67	89.1147637750068	8.4691	3569.84810555223	456.983964652688	3598.9789997532	7.29488175825893			
68	145.627808632325	7.3416	3590.16655853561	397.723035586673	3612.12950087116	6.32152027331778			
69	139.239691648454	7.2415	3590.63584722433	392.335577604521	3612.00678194638	6.23576117211556			
70	113.675218712998	7.21143	3592.40728571927	390.027628706688	3613.51790609144	6.19633205388898			
71	153.150948613331	6.8355	3591.75732501594	369.829086503699	3610.74704666913	5.87880315778496			
72	107.132095729517	6.4205	3598.90565820276	346.741787329252	3615.57074384172	5.50325870184779			
73	101.678996743285	6.1734	3600.5343864566	333.194687806847	3615.91849576827	5.28711296887368			
74	133.736588662348	6	3605.44548162493	324.000030193824	3619.97419058965	5.13503922145383			
75	113.675218712998	5.60889	3612.8704603588	303.153454494706	3625.56684951544	4.79641335979851			
76	153.150948613331	5.3165	3610.8982501129	287.198356579941	3622.3016258576	4.5475349092518			
77	92.7328287658721	5.2848	3613.58629458192	286.79020822008	3624.94890059449	4.53773540405187			
78	145.627808632325	5.244	3614.173903957	283.829724496449	3625.30168683263	4.49035860817656			
79	162.124116590676	4.95	3622.49715534967	268.401415168395	3632.42686921304	4.23746906265375			
80	122.223376691416	4.5	3619.98444385554	243.216970325468	3628.14578929932	3.84377174112223			
81	139.239691648454	4.3449	3622.78810589676	234.093473931083	3630.34342931412	3.69713792810138			
82	113.675218712998	4.00635	3627.07649480358	214.207825498875	3633.39633011065	3.37984741446999			
83	107.132095729517	3.8523	3622.59460790975	207.278881088165	3628.51983979721	3.27479916855047			
84	162.124116590676	3.85	3631.62239039493	204.566319991734	3637.37935410822	3.22401738389432			
85	153.150948613331	3.7975	3622.27313893206	202.496217272541	3627.92880457134	3.19968003131605			
86	122.223376691416	3.5	3626.51879076722	184.675813515472	3631.21793560856	2.91519583333199			
87	97.0209087550458	3.2977	3631.67519962576	176.670828062466	3635.9699307152	2.7850835897349			
88	145.627808632325	3.1464	3628.34748519365	165.823791762161	3632.13477217263	2.61672753611632			
89	162.124116590676	2.75	3636.11070093084	143.793138825071	3638.95280213922	2.26463105577712			
90	122.223376691416	2.5	3629.23268841229	128.797993976142	3631.51742800342	2.03251935359395			
91	113.675218712998	2.40381	3633.49827330856	124.072614715933	3635.61600225584	1.95571198430832			
92	153.150948613331	2.2785	3628.38812771532	116.234114782058	3630.24940944623	1.83482231490372			
93	101.678996743285	2.0578	3627.70966764644	104.904114615162	3629.22613045792	1.6563862683031			
94	133.736588662348	2	3632.21702502744	99.3998018374656	3633.57686550106	1.56757374575107			
95	162.124116590676	1.65	3635.60045166079	80.1522227144059	3636.48388184551	1.26296613693689			
96	122.223376691416	1.5	3631.79836727294	69.3837320260552	3632.46107794651	1.09447471093222			
97	139.239691648454	1.4483	3629.80170079794	68.2974517833867	3630.44417792586	1.07793603189194			
98	107.132095729517	1.2841	3629.16668372178	59.4866343641076	3629.65418158592	0.939066234671683			
99	145.627808632325	1.0488	3625.32735994076	43.8332315867692	3625.59234042196	0.692720008920713			
100	113.675218712998	0.80127	3627.50369006469	29.3395923086555	3627.62233882053	0.463403569161491			
101	153.150948613331	0.7595	3620.51791930237	26.5434828798923	3620.61521850541	0.420051033976322			
102	162.124116590676	0.55	3628.42464615326	15.4974122600766	3628.45774160306	0.244715269893157			
103	122.223376691416	0.5	3621.10871532046	11.3553072788762	3621.12651963076	0.179671227982367			
10/21/2021									
Index	Time (s)	Frequency (Hz)	Z' (Ω)	-Z'' (Ω)	Z (Ω)	-Phase (°)	OCP value (V)	A ratio	meas start time (s)
1	242.246713388386	10000	80.3069336028584	30.7064167417093	85.9772505597232	20.9250149502143	0.00273990631103516	1.46815296	3717700696.272101
2	244.634754382357	6240.1	81.9975147493757	41.1100099488397	91.7258161210233	26.6272076260416			
3	247.087801376163	3893.8	82.3108133672702	60.6041493854625	102.215130582106	36.3636280063562			
4	249.590845369844	2429.8	81.4967687701754	95.4579290351806	125.51469848454	49.511109313705			
5	264.677128331754	2069.01	81.3827409444506	112.580520841706	138.915528997378	54.1374077575907			
6	264.677128331754	1609.23	81.0326155861204	146.257910159798	167.205445703899	61.0118286471695			
7	252.188893363284	1516.2	82.0194128488958	154.835642935139	175.217751404404	62.0889721910827			
8	267.385176324917	1291.05	82.8409972456094	183.455223650021	201.291951923385	65.6979797274517			
9	264.677128331754	1149.45	84.5723231495454	206.860893441245	223.48133496608	67.7634549142033			
10	267.385176324917	1004.15	88.4645161425514	238.30977639914	254.19976424801	69.6342442846991			
11	254.791941356712	946.12	89.8369423243675	253.165552294667	268.632598682393	70.4625401452721			
12	269.978224318371	805.626	96.6670530570247	298.081520925028	313.36418471757	72.0322576934246			
13	267.385176324917	717.25	102.690928071088	336.191319328749	351.525290555468	73.0145072968941			
14	264.677128331754	689.67	106.66902146267	349.931631279943	365.828411567562	73.0473013803094			
15	269.978224318371	626.598	113.208817541972	384.930614257274	401.232867748561	73.611291099758			
16	257.339991350279	590.38	119.349681302708	408.573881649865	425.648873126073	73.716237908575			
17	272.471272312076	502.713	137.4014419653	478.223206773678	497.570690204964	73.9697656065542			
18	269.978224318371	447.57	155.585932998501	534.396343754664	556.584615997754	73.7674331455812			
19	267.385176324917	430.35	163.149232540766	555.037877478231	578.51941844175	73.6196952431815			
20	272.471272312076	390.999	181.315976408357	607.094983408202	633.592773144013	73.3711330652737			
21	260.058042343417	368.4	195.983986332756	641.580793127096	670.846954981888	73.0136355762507			
22	275.389325304709	313.695	241.054219886212	742.573080845611	780.718846526388	72.0155227631107			
23	272.471272312076	279.285	282.341381120599	822.334270955188	869.4540290783	71.0505330374861			
24	269.978224318371	268.542	301.408361698014	850.518558436084	902.346285383652	70.4865959777677			
25	275.389325304709	243.985	341.976775497878	922.965951389026	984.28362904367	69.6693555947899			
26	264.677128331754	229.89	372.916598085208	968.262702941648	1037.59310475509	68.9363139345282			
27	278.55738229671	195.75	469.816713484924	1101.11597066823	1197.15668361765	66.8933547563069			
28	275.389325304709	174.275	557.898981854845	1200.44606788213	1323.75301164845	65.0736777404589			
29	272.471272312076	167.571	589.381523494027	1233.29145099031	1366.88638274069	64.4571845144719			
30	278.55738229671	152.25	677.953577076354	1315.30291220518	1479.74416826897	62.73182259076			
31	267.385176324917	143.45	741.888906697397	1363.29829433404	1552.08936250938	61.4455520934557			
32	281.845443288409	122.148	925.055723853587	1495.01642762951	1758.06774929647	58.2524529758098			
33	278.55738229671	108.75	1079.75889601251	1579.76482571952	1913.51409142937	55.6476496130253			
34	275.389325304709	104.565	1135.88607575071	1604.28990918261	1965.70172960943	54.7003448549954			
35	281.845443288409	95.004	1279.69124415817	1661.76311878808	2097.3951328587	52.4008362198067			
36	269.978224318371	89.514	1372.25805742353	1686.36515782609	2174.14802202924	50.8634684531482			
37	285.638515278832	76.2219	1640.01958423822	1742.8926573925	2393.18596266099	46.7418060619964			
38	281.845443288409	67.86	1840.53654140009	1756.60521899929	2544.2556191634	43.6633726272678			
39	278.55738229671	65.25	1909.26837423305	1756.04520046603	2594.03170198945	42.6062259192277			
40	285.638515278832	59.2837	2072.55124173219	1735.66106208127	2703.32905359868	39.9445392799949			
41	272.471272312076	55.857	2177.50385302693	1725.83047495616	2778.49129173272	38.3993889287815			
42	289.611589268801	47.5632	2433.3044684307	1657.75990408142	2944.34008491968	34.2657933963361			
43	285.638515278832	42.3455	2606.25219548658	1590.70710366991	3053.34236471191	31.3975008802336			
44	281.845443288409	40.716	2660.43006850999	1563.54868182229	3085.86659301084	30.4429768304221			
45	289.611589268801	36.9936	2787.08265840817	1493.6370707814	3162.0849836796	28.187487761098			
46	275.389325304709	34.855	2860.02137289505	1448.79536876281	3206.04589392683	26.8653155005199			
47	293.724662258417	29.6793	3031.64399620816	1313.11805980526	3303.80755473616	23.4192353556487			
48	289.611589268801	26.424	3136.32438214861	1216.41954341063	3363.9570650725	21.1987214950081			
49	285.638515278832	25.4073	3170.00786071757	1185.37533678673	3384.3853985729	20.5025048865906			
50	293.724662258417	23.0839	3239.90883019669	1100.92782519312	3421.84910600554	18.767868734327			
51	278.55738229671	21.75	3282.28386489573	1057.27155971641	3448.36345542926	17.8545076915595			
52	298.447753246492	18.5202	3367.34892006458	925.246321488143	3492.15112858643	15.3639967845076			
53	330.820350164759	18	3387.59028023452	907.53736496701	3507.04889836892	14.997400693451			
54	293.724662258417	16.4885	3421.90296941678	840.696340218367	3523.66148609084	13.80310064641			
55	289.611589268801	15.8544	3437.99288480316	814.590054219104	3533.17874334003	13.3297162624804			
56	298.447753246492	14.4046	3470.74072490404	746.245847146827	3550.05972398935	12.1344575379235			
57	330.820350164759	14	3485.16012985306	730.817998393571	3560.95999380692	11.842999178137			
58	281.845443288409	13.572	3494.44103442659	714.042145169855	3566.6474914355	11.5486435362356			
59	336.603457150158	13.0347	3499.04634219327	685.559262081684	3565.57383974054	11.0853930016494			
60	303.855851232838	11.5569	3534.99548622003	614.906663537133	3588.07793845931	9.86777095254763			
61	298.447753246492	10.289	3554.74682050044	550.275911162713	3597.08611743783	8.79955970633484			
62	336.603457150158	10.1381	3557.82421034972	545.702808284862	3599.43115876948	8.72012803139404			
63	330.820350164759	10	3566.55519637521	538.497264470296	3606.97869034917	8.58596666389473			
64	293.724662258417	9.8931	3564.18403401189	532.501164603553	3603.74323705358	8.49733145173951			
65	343.021577133954	9.4392	3572.39796289088	511.324264607495	3608.80585635239	8.14553179811196			
66	303.855851232838	8.9887	3581.96992469106	484.799298483675	3614.62845963476	7.70782209055747			
67	285.638515278832	8.4691	3591.1504402146	461.744842625301	3620.71398814441	7.32680689388979			
68	343.021577133954	7.3416	3606.33682843629	400.920787043894	3628.5538162772	6.34359248668504			
69	336.603457150158	7.2415	3603.97915909804	395.295604878791	3625.59297142543	6.25935788769637			
70	310.653978215674	7.21143	3603.37201639751	392.711077698798	3624.70852333039	6.21979416718766			
71	350.4497131152	6.8355	3619.7711374512	376.336200588325	3639.28180049279	5.93553702567409			
72	303.855851232838	6.4205	3617.12445842307	351.155453749799	3634.12981336944	5.54497713033481			
73	298.447753246492	6.1734	3617.326723156	336.395242928218	3632.93467895078	5.31297114825442			
74	330.820350164759	6	3625.56669903408	326.325352275277	3640.22281250509	5.1431462651688			
75	310.653978215674	5.60889	3623.44110682512	306.176209816855	3636.35385050573	4.82994767552308			
76	350.4497131152	5.3165	3639.94640475892	291.512384810089	3651.60092288507	4.57887421355864			
77	289.611589268801	5.2848	3629.0929297879	287.617197416092	3640.47237941534	4.53140188388486			
78	343.021577133954	5.244	3632.3334130872	286.19229846837	3643.59054443997	4.50503938967098			
79	359.60288209209	4.95	3640.21873951365	270.310937977164	3650.24115295091	4.2468060602504			
80	319.237135194004	4.5	3638.471058746	243.329276601223	3646.59852220991	3.82606075960526			
81	336.603457150158	4.3449	3634.49648896078	235.423329925582	3642.11324268501	3.70613794705682			
82	310.653978215674	4.00635	3637.46010765407	216.236187809326	3643.88173843404	3.40205993027581			
83	303.855851232838	3.8523	3640.83235516916	206.198943465624	3646.66673041738	3.24149004288828			
84	359.60288209209	3.85	3650.99853535201	208.439882952855	3656.94373622947	3.26753773882714			
85	350.4497131152	3.7975	3652.39698954045	205.572290313561	3658.17765229477	3.22144897381305			
86	319.237135194004	3.5	3646.60387710622	186.768429733641	3651.38361212175	2.93196104472773			
87	293.724662258417	3.2977	3644.83548057264	176.097958646106	3649.08703259878	2.76605902800011			
88	343.021577133954	3.1464	3647.10040253881	167.110255072285	3650.92689375576	2.62345948206566			
89	359.60288209209	2.75	3654.3018177038	145.062647996657	3657.17991719263	2.27324295523089			
90	319.237135194004	2.5	3650.2548132285	130.154427269262	3652.57448608999	2.04208797240297			
91	310.653978215674	2.40381	3643.99520915672	123.05039327126	3646.07219945538	1.93402841552732			
92	350.4497131152	2.2785	3656.67150954189	118.49977454932	3658.59108472969	1.856103752176			
93	298.447753246492	2.0578	3645.76867644416	102.822760135818	3647.21835953694	1.61550263492402			
94	330.820350164759	2	3650.81105378083	100.010522128577	3652.18064379964	1.56917134597718			
95	359.60288209209	1.65	3655.47868944014	80.2982343416859	3656.36052043413	1.25838789843483			
96	319.237135194004	1.5	3648.95976545078	71.185547032294	3649.65405922053	1.11761005132925			
97	336.603457150158	1.4483	3642.20634962973	69.3244418236853	3642.86603809655	1.09041553357577			
98	303.855851232838	1.2841	3644.4946325899	57.0708742631031	3644.94145517671	0.897148525368036			
