10/21/2021
Index	Time (s)	Frequency (Hz)	Z' (Ω)	-Z'' (Ω)	Z (Ω)	-Phase (°)	OCP value (V)
1	45.0409508862825	10000	73.4495217325728	17.7806792027797	75.5710579233601	13.6083785487784	2.47955322265677E-05
2	47.2889918806068	6240.1	79.9901569504729	20.8588158971472	82.6650797470877	14.6153869159773	
3	49.8020368742619	3893.8	88.0810549551745	23.1059470109084	91.0612817243826	14.6989743902296	
4	52.3650838677909	2429.8	96.7643419699797	23.3673281163202	99.54581809488	13.5762632819034	
5	67.1713598304086	2069.01	98.5823113263079	23.0601418473505	101.243480029368	13.1657680392039	
6	67.1713598304086	1609.23	103.537132781466	22.4448697502308	105.942012642349	12.231372510837	
7	54.9381338612945	1516.2	105.105522357642	21.9209255397699	107.367116970667	11.7807967228965	
8	69.9444098234073	1291.05	107.082565335974	21.8946530852106	109.297994641507	11.5557145422994	
9	67.1713598304086	1149.45	109.340917365818	20.7526867416833	111.292902816833	10.7467958317874	
10	69.9444098234073	1004.15	109.935360368083	20.2222171035165	111.779790319368	10.4228396917849	
11	57.4211788550255	946.12	112.288813706348	19.3218335489316	113.939066764966	9.76342405627464	
12	72.9374658158506	805.626	113.809064650598	18.1931389701607	115.25403898446	9.08226995420484	
13	69.9444098234073	717.25	115.058985047686	18.1519690321902	116.482033034924	8.96522243952725	
14	67.1713598304086	689.67	115.060943424534	17.4819504316992	116.38143878059	8.63924321323269	
15	72.9374658158506	626.598	115.877093735296	17.0826169582451	117.129486700321	8.38614854507122	
16	59.9442248486554	590.38	118.15133935135	16.6866926019516	119.323864756845	8.03880284415201	
17	76.1505238077384	502.713	119.455134030221	15.6796558131543	120.479793544797	7.4778817352567	
18	72.9374658158506	447.57	119.969307809416	14.2844338054182	120.816720140102	6.79009221421671	
19	69.9444098234073	430.35	120.938995074718	14.1926728376433	121.768930733414	6.69327351024062	
20	76.1505238077384	390.999	120.905702435067	13.1846899984545	121.62246886029	6.22347671116652	
21	62.5872748419823	368.4	122.182248175948	13.1685025133876	122.889833703907	6.15145325323225	
22	79.7235937987173	313.695	122.712135698779	11.8869072126436	123.286523232823	5.53287792499441	
23	76.1505238077384	279.285	123.56235596134	11.7001121098931	124.115061270182	5.40920576931044	
24	72.9374658158506	268.542	121.754058140658	13.355347864733	122.484349981158	6.2598160837084	
25	79.7235937987173	243.985	124.089761904139	11.1879743354172	124.593096835884	5.15187705634569	
26	67.1713598304086	229.89	123.66900888125	10.8690044037572	124.145716858858	5.02269768253233	
27	83.8016687884211	195.75	124.948785221187	9.62243939119762	125.318754654232	4.40371718079944	
28	79.7235937987173	174.275	126.073569290417	9.2552881797456	126.412836503718	4.1986547611209	
29	76.1505238077384	167.571	127.011863319293	8.13519900908781	127.272129261501	3.66482872691687	
30	83.8016687884211	152.25	125.78710865311	7.96802532103053	126.039224572456	3.62457694145108	
31	69.9444098234073	143.45	126.908612269608	9.57438223373922	127.269260480901	4.3143996404471	
32	88.3047487770519	122.148	127.142505361399	7.19083716665938	127.345690185145	3.23704620941446	
33	83.8016687884211	108.75	127.181648228064	8.30340156241886	127.452415134096	3.73541022525824	
34	79.7235937987173	104.565	127.675899840383	7.8501651080372	127.917006266856	3.51840734912379	
35	88.3047487770519	95.004	128.458766120807	6.03101397099951	128.600263307656	2.68800723229046	
36	72.9374658158506	89.514	128.706097706554	5.64488233911466	128.829826839407	2.51130908487033	
37	92.1578197673239	76.2219	128.744593237388	5.74053925378311	128.87251095088	2.5530466979647	
38	88.3047487770519	67.86	129.554497311223	5.41693267751125	129.667694254184	2.39425655104852	
39	83.8016687884211	65.25	129.126558584799	4.7324757855186	129.213251870751	2.09894529211509	
40	92.1578197673239	59.2837	133.513554793477	5.7459025521951	133.637138212886	2.46426622529352	
41	76.1505238077384	55.857	127.946987794759	6.99506675363286	128.138060874355	3.12933667128064	
42	96.4409017565101	47.5632	129.653498628914	5.25370968508404	129.759898166471	2.32042177717873	
43	92.1578197673239	42.3455	130.384299155088	4.41778991153812	130.459121313406	1.94060113234733	
44	88.3047487770519	40.716	130.412191716728	5.23156125518718	130.51708310228	2.297221918852	
45	96.4409017565101	36.9936	128.786485290083	4.10357175255467	128.851845522294	1.82501930003765	
46	79.7235937987173	34.855	131.126516424826	4.37707258511221	131.199550586599	1.91185358407613	
47	100.718978745709	29.6793	131.086877969285	3.82457215783462	131.142658688638	1.67117945722106	
48	96.4409017565101	26.424	131.278873978371	5.29912867846233	131.385781261824	2.31151409604126	
49	92.1578197673239	25.4073	132.223553147653	4.13482861046625	132.288188492504	1.79114116452291	
50	100.718978745709	23.0839	132.202511473341	3.21734641819995	132.241655153865	1.39410355423621	
51	83.8016687884211	21.75	131.873284012535	3.72150760164753	131.925784648339	1.61647678659363	
52	105.667073733216	18.5202	131.571919638338	3.04608736679007	131.607175661373	1.32624635095859	
53	138.929686649236	18	133.095470311927	3.17687192702993	133.133379483861	1.36734027748752	
54	100.718978745709	16.4885	131.453163316013	2.4194525900239	131.475426968775	1.054434662157	
55	96.4409017565101	15.8544	132.769499988625	3.84157425576694	132.82506472798	1.6573429831098	
56	105.667073733216	14.4046	132.11993269413	3.03410567261196	132.154766892208	1.31555394796985	
57	138.929686649236	14	132.650570609688	4.18715645776598	132.716638603747	1.8079587691988	
58	88.3047487770519	13.572	132.319013088772	3.67462684215533	132.370027223748	1.5907502982549	
59	144.982801633954	13.0347	132.094075605042	3.2487715539964	132.134020322401	1.40887000593347	
60	111.46018071859	11.5569	133.068917931914	2.73994364248875	133.097123224863	1.17957693806885	
61	105.667073733216	10.289	132.942730823937	1.77479312086523	132.95457709138	0.764856523247942	
62	144.982801633954	10.1381	132.837966658382	2.52730908210989	132.862006145963	1.08994950609719	
63	138.929686649236	10	133.079751712472	3.8238797150697	133.134677570978	1.64586948692928	
64	100.718978745709	9.8931	132.861382353364	2.28913717108653	132.881101251588	0.987080822685128	
65	151.565922617333	9.4392	134.628929616322	2.61401332061848	134.654304629584	1.1123397795429	
66	111.46018071859	8.9887	133.040019024757	2.23654884901663	133.058817118077	0.963114263751125	
67	92.1578197673239	8.4691	133.455601814105	2.96299614826392	133.488490147052	1.27187832726508	
68	151.565922617333	7.3416	132.424975763645	3.80701068123238	132.479687259327	1.6467103845518	
69	144.982801633954	7.2415	133.05659799998	2.03105083208078	133.072098648856	0.87452712064168	
70	118.288303701351	7.21143	133.626009715436	1.93240915982093	133.639981583472	0.82851513820827	
71	159.209064598036	6.8355	133.337356900137	0.937344961546151	133.340651568422	0.402775537322762	
72	111.46018071859	6.4205	133.780133771429	1.69045584891517	133.790813708859	0.723955256645254	
73	105.667073733216	6.1734	132.982233372795	1.6694850774158	132.992712481701	0.719264684070632	
74	138.929686649236	6	133.002771482303	2.18595230487454	133.020733757761	0.941593656268589	
75	118.288303701351	5.60889	133.54929854665	1.83618374160013	133.561920894524	0.787716232265761	
76	159.209064598036	5.3165	134.637477888416	0.75563893935004	134.639598344471	0.321563268756161	
77	96.4409017565101	5.2848	133.223964159106	2.16261966932959	133.241515865367	0.929998581959997	
78	151.565922617333	5.244	133.421581224901	-2.11859944862386	133.438400770455	-0.909722438215048	
79	168.457235574686	4.95	134.233603066714	2.13370187398014	134.25056005827	0.910664800854045	
80	127.241472678746	4.5	134.235526164163	2.93201021145954	134.267543242773	1.25127160876778	
81	144.982801633954	4.3449	133.835422821677	2.06178119150213	133.851303107361	0.882591575744156	
82	118.288303701351	4.00635	133.678941209661	1.95091862152912	133.693176364404	0.836118743541129	
83	111.46018071859	3.8523	133.493291464116	1.48991100110024	133.501605610999	0.639448372067943	
84	168.457235574686	3.85	135.148150972084	1.73034044812034	135.159227540111	0.733534180124902	
85	159.209064598036	3.7975	133.679874520935	2.7584204809656	133.708330837995	1.18210334105163	
86	127.241472678746	3.5	133.526948747378	0.328147005438195	133.527351962967	0.140806038014942	
87	100.718978745709	3.2977	134.17870363288	1.65777607580172	134.188944142645	0.70785256861077	
88	151.565922617333	3.1464	137.613690433467	4.11710526037026	137.675264119751	1.71365517117063	
89	168.457235574686	2.75	133.782485457947	1.00923883918293	133.786292191466	0.432224210072868	
90	127.241472678746	2.5	136.101429441563	-0.504860117705976	136.102365812557	-0.212534294707866	
91	118.288303701351	2.40381	134.522711128479	0.861437800598535	134.525469277905	0.366897717378727	
92	159.209064598036	2.2785	135.009833045022	2.0451502637745	135.02532228603	0.867859135316978	
93	105.667073733216	2.0578	135.076448304884	1.69654307191159	135.087102067728	0.719589892409415	
94	138.929686649236	2	134.748812940429	0.605260468282106	134.750172278514	0.257357644627669	
95	168.457235574686	1.65	135.910597028955	1.44943153301043	135.918325609669	0.61101314525663	
96	127.241472678746	1.5	132.839567202413	-1.20911761306073	132.845069836733	-0.52149690452709	
97	144.982801633954	1.4483	134.058443667844	1.99241035279066	134.073248702559	0.851481615313891	
98	111.46018071859	1.2841	133.689126709268	1.17367661798169	133.694278550319	0.502995200981789	
99	151.565922617333	1.0488	138.608045293398	1.70791445741485	138.618567269506	0.705957132155874	
100	118.288303701351	0.80127	134.623934021327	0.392758184998614	134.624506945692	0.167156922635816	
101	159.209064598036	0.7595	134.819926427095	0.878776349868346	134.822790394207	0.373457131095076	
102	168.457235574686	0.55	135.933926792361	1.36084312555243	135.940738364933	0.573572506122711	
103	127.241472678746	0.5	137.191762942632	-0.368912966727008	137.192258951023	-0.154069782333429	
10/21/2021
Index	Time (s)	Frequency (Hz)	Z' (Ω)	-Z'' (Ω)	Z (Ω)	-Phase (°)	OCP value (V)
1	246.195782378415	10000	74.1408047236966	17.9324840251417	76.2786530320854	13.5970327248283	3.59168419471116E-05
2	248.51882337255	6240.1	80.4999701165473	21.0994803891249	83.2191880605434	14.6871527485687	
3	250.94686936642	3893.8	88.7275309153628	23.2957272964764	91.7347570586441	14.7111737017313	
4	253.544917359861	2429.8	97.7420612912881	23.3517371724094	100.49285633536	13.4367681764965	
5	268.281192322655	2069.01	100.01481273739	23.7442456073473	102.794707871355	13.3551900497571	
6	268.281192322655	1609.23	103.726370957178	22.6595798575359	106.172579281405	12.3229746056252	
7	255.967961353743	1516.2	105.872990272077	21.9018306465072	108.114662533902	11.6878507102322	
8	270.934241315957	1291.05	107.970899626342	21.8961104217829	110.168756086853	11.4639091786927	
9	268.281192322655	1149.45	109.654429427947	21.5887249601108	111.75941543589	11.1379227870325	
10	270.934241315957	1004.15	111.921104339366	20.2426155057355	113.736964435738	10.2519744071019	
11	258.531009347272	946.12	112.815006726585	19.0618091622462	114.414065181066	9.59041065216902	
12	274.002296308211	805.626	114.552188533623	19.2034998090982	116.150670694408	9.51656013471817	
13	270.934241315957	717.25	115.615784757951	18.4891814242481	117.084838962761	9.08576177103642	
14	268.281192322655	689.67	117.421884275139	17.502992879798	118.719221975527	8.47812690562035	
15	274.002296308211	626.598	117.487764946059	17.6577174859557	118.807280495911	8.54724459531796	
16	261.074055340851	590.38	118.68193312425	16.1348221284502	119.773677138283	7.74190407742264	
17	277.235356300048	502.713	120.154415958266	14.7991152614821	121.062370234498	7.02161215518791	
18	274.002296308211	447.57	121.923127877715	15.3979366970629	122.891600876595	7.197901732651	
19	270.934241315957	430.35	121.187949343381	14.0244828338488	121.996742517212	6.60119372236278	
20	277.235356300048	390.999	122.518511033228	13.9987647147959	123.315655775492	6.51825493369972	
21	263.73210633414	368.4	122.903208654974	13.0922385380611	123.598565556505	6.08049056958656	
22	280.823424290989	313.695	124.034194794288	12.1729795878472	124.630104350087	5.60517947709875	
23	277.235356300048	279.285	124.637062206912	11.5658001372084	125.172540952014	5.30162687837666	
24	274.002296308211	268.542	126.248732800787	9.64548503214396	126.616657337452	4.36894728943037	
25	280.823424290989	243.985	124.922380027175	11.0956179744772	125.414168935928	5.07569727852355	
26	268.281192322655	229.89	126.077163855133	10.0106896479486	126.473970258633	4.53983432167127	
27	284.966497280529	195.75	125.929252528773	9.40784544679294	126.280181336606	4.27248127358232	
28	280.823424290989	174.275	127.281429835425	9.71549629876011	127.651687216744	4.36496979357028	
29	277.235356300048	167.571	128.339082481492	8.47808610305673	128.618809029481	3.77947061501339	
30	284.966497280529	152.25	127.236725385703	8.54868350234632	127.523583216988	3.84376807947265	
31	270.934241315957	143.45	129.016774545978	8.04436539699593	129.267319647651	3.56784835379489	
32	289.429583269261	122.148	128.334718387363	8.43795437404878	128.611815233214	3.76175921019535	
33	284.966497280529	108.75	128.658617372846	6.99667565290499	128.84872251786	3.11277635279967	
34	280.823424290989	104.565	128.617642993559	8.19271702700553	128.878309662655	3.64471599348139	
35	289.429583269261	95.004	129.002910344854	7.3803823982981	129.213857313322	3.27437812419502	
36	274.002296308211	89.514	130.539146653049	5.78176722452035	130.667125326704	2.53605528802001	
37	293.322653259431	76.2219	128.992577854474	6.19420155640067	129.141214468751	2.74922169671734	
38	289.429583269261	67.86	131.138396723589	6.48585108892274	131.298687577527	2.83143112312648	
39	284.966497280529	65.25	130.152878200821	5.63649222357432	130.274869980915	2.47974193378243	
40	293.322653259431	59.2837	134.690029862984	8.14589806279837	134.936132298733	3.46096722509203	
41	277.235356300048	55.857	130.087553859682	2.29893002962555	130.107865820929	1.01243566009584	
42	297.465729248971	47.5632	130.986655818033	3.82624021990514	131.042527893093	1.67318642184824	
43	293.322653259431	42.3455	130.663960854661	4.79394852276834	130.751874207092	2.10119048937133	
44	289.429583269261	40.716	130.35466540465	4.55403029147546	130.434190244177	2.00085388914277	
45	297.465729248971	36.9936	132.347320893547	3.74053108986049	132.400169639369	1.6189191087201	
46	280.823424290989	34.855	132.653586075358	4.53005605452849	132.730913153303	1.95586320022775	
47	301.868814237855	29.6793	132.969755558641	3.83842563226566	133.025145760714	1.65349278433929	
48	297.465729248971	26.424	131.685294923418	4.54797772910467	131.763807627482	1.97802190573361	
49	293.322653259431	25.4073	132.398213911904	4.49969898962951	132.474655455523	1.94651090282861	
50	301.868814237855	23.0839	132.314754185272	3.82266294834503	132.369962329547	1.6548535954206	
51	284.966497280529	21.75	132.955940660348	4.036213598879	133.017191284036	1.73882416732167	
52	307.016906224857	18.5202	132.308551902669	2.61301163161305	132.33435206464	1.13140893712394	
53	340.3495251407	18	132.809396776409	2.49543992716534	132.832838908696	1.07644004659305	
54	301.868814237855	16.4885	132.572125774682	2.78741385107758	132.601426117502	1.2045029860511	
55	297.465729248971	15.8544	132.968234903579	3.7885828644995	133.022196845092	1.63205217361474	
56	307.016906224857	14.4046	133.129268746669	2.63698538525594	133.155382500839	1.13474955370032	
57	340.3495251407	14	132.671318058376	1.36940312252703	132.67838520369	0.591372983350643	
58	289.429583269261	13.572	131.969434668153	3.72572322373691	132.022015967686	1.61712846992924	
59	346.362635125518	13.0347	133.513812855104	3.38686405580666	133.556763479954	1.45311862678628	
60	312.740012210407	11.5569	134.313527122383	2.63495706772115	134.339370873932	1.12388200195007	
61	307.016906224857	10.289	134.073997944218	2.5771878634322	134.098765177125	1.10121132601801	
62	346.362635125518	10.1381	133.928937024249	1.73053140703018	133.940116885854	0.740292804342448	
63	340.3495251407	10	132.796448186287	2.84116764923301	132.826837967725	1.22565088219027	
64	301.868814237855	9.8931	133.936818188315	1.94601498839489	133.950954609308	0.832411896568492	
65	353.275764108064	9.4392	133.704895178906	2.90287353674837	133.736403681169	1.24375608066592	
66	312.740012210407	8.9887	132.751885087189	2.14190507505943	132.769163406089	0.924367086849884	
67	293.322653259431	8.4691	134.332558382491	2.81077116494601	134.36196141813	1.19868057657515	
68	353.275764108064	7.3416	134.000378366042	0.848245955329164	134.003063112166	0.3626875138204	
69	346.362635125518	7.2415	134.349825791512	2.01706470675187	134.364966565845	0.860147096269649	
70	319.718146192789	7.21143	133.526264817474	2.02493129880898	133.541618018021	0.868826253590546	
71	361.1039070883	6.8355	133.946524508836	1.69215045197074	133.957212576062	0.72378079503314	
72	312.740012210407	6.4205	134.521857340265	2.25793674684782	134.540805633931	0.961613980958009	
73	307.016906224857	6.1734	134.499978902351	1.9420402812739	134.513998695998	0.827234181952416	
74	340.3495251407	6	133.09016785452	3.13801044269241	133.127156842933	1.35067414015008	
75	319.718146192789	5.60889	134.630733914641	1.28845758036598	134.636899241371	0.548321513020938	
76	361.1039070883	5.3165	133.702625896592	2.05433298006863	133.718407317904	0.880277013045744	
77	297.465729248971	5.2848	134.330160524849	3.27010204082299	134.36995792955	1.39451963958074	
78	353.275764108064	5.244	134.238946582454	2.22544618266316	134.257392311481	0.949776481066711	
79	370.177075065393	4.95	134.382774681631	1.93003226464647	134.396633721521	0.822836862019621	
80	328.501306170614	4.5	132.756347218221	1.9923511396189	132.771296558361	0.859806291809931	
81	346.362635125518	4.3449	134.456937475119	1.77460833237149	134.468647906943	0.756165254930111	
82	319.718146192789	4.00635	134.619082098073	1.63577902334541	134.629020043752	0.696176355010339	
83	312.740012210407	3.8523	134.31350805451	1.88258411382187	134.326700878324	0.803024677937256	
84	370.177075065393	3.85	135.543427125573	0.848785824194242	135.546084688274	0.358786927575523	
85	361.1039070883	3.7975	133.891583730587	1.82138171528942	133.90397165595	0.779369739042739	
86	328.501306170614	3.5	132.918887878072	2.16860679313899	132.936577397519	0.934712858508628	
87	301.868814237855	3.2977	134.841081697714	2.13265692982974	134.85794577625	0.906118910441788	
88	353.275764108064	3.1464	135.93408963553	2.11579062287041	135.950554596147	0.891726903992835	
89	370.177075065393	2.75	135.207617222069	1.49922553033554	135.215928913943	0.63528798884618	
90	328.501306170614	2.5	135.66406593432	1.1835298260831	135.669228377996	0.499834228419711	
91	319.718146192789	2.40381	134.696722858598	1.31563072497408	134.70314782161	0.559610429702025	
92	361.1039070883	2.2785	135.565412015298	2.32367397459931	135.585325148475	0.981988498997745	
93	307.016906224857	2.0578	135.656826263752	1.1773383944626	135.661935109481	0.497246097762329	
94	340.3495251407	2	134.009303402411	2.50026494199477	134.032625592352	1.06886616402018	
95	370.177075065393	1.65	134.811688731	1.88794897470219	134.824907824315	0.802337233864899	
96	328.501306170614	1.5	134.483547798123	0.876556910310008	134.486404444416	0.373445682279306	
97	346.362635125518	1.4483	136.768708845827	1.03268236403074	136.77260746297	0.432607846892377	
98	312.740012210407	1.2841	135.870192595496	1.38617667318823	135.877263446489	0.584523478882366	
99	353.275764108064	1.0488	136.071252549009	1.38008659791495	136.078251051643	0.581095747606083	
100	319.718146192789	0.80127	135.846679133016	0.463421288026531	135.847469578049	0.195455502571179	
101	361.1039070883	0.7595	134.497117063208	1.00467115068672	134.500869374273	0.427982007171429	
102	370.177075065393	0.55	135.956590468124	1.82188742645715	135.968797028994	0.767746618578918	
103	328.501306170614	0.5	136.813583104116	3.05194852230035	136.847619312758	1.27790508220488	
10/21/2021
