10/14/2021
Index	Time (s)	Frequency (Hz)	Z' (Ω)	-Z'' (Ω)	Z (Ω)	-Phase (°)	OCP value (V)
1	75.1434988102809	10000	83.4929326235312	9.22421045225702	84.0009277124071	6.30441008386302	0.000872230529785154
2	77.6715408038982	6309.6	86.358753517969	9.38715222713308	86.8674446275053	6.20366506961154	
3	80.099584797768	3981.1	89.8589150509069	8.61625511402734	90.2710610678533	5.47714558707863	
4	82.4176287919155	2511.9	92.9802029272467	7.61235988459889	93.2912973401304	4.68041032539637	
5	94.735853760815	2260.71	92.3187002055191	8.76764993422207	92.7341042605447	5.42519693631977	
6	94.735853760815	1758.33	94.4730654455162	7.21895266731509	94.7484742477984	4.36964022070805	
7	84.7956717859115	1584.9	95.7146828015749	5.20938963562951	95.8563417003898	3.11531979437919	
8	97.3889047541167	1426.41	95.6918791327738	6.14323212294765	95.8888681384748	3.67323662114941	
9	94.735853760815	1255.95	90.3948386084438	5.1598209330718	90.5419825225181	3.26695096519885	
10	97.3889047541167	1109.43	101.660795645114	9.25527026366433	102.081229414868	5.20190780427964	
11	87.113715780059	1000	96.3459323556443	3.89784534852204	96.4247472376225	2.31673882360023	
12	100.166954747103	900	99.8563733978881	0.327377778378489	99.8569100482697	0.187842770223576	
13	97.3889047541167	792.45	103.624666186645	1.02783679792516	103.629763537204	0.568289207001278	
14	94.735853760815	753.57	97.7451312204894	2.89591840020269	97.7880208445356	1.69701935809313	
15	100.166954747103	700	98.83403177526	4.61420236030838	98.9416833310157	2.6729911634761	
16	89.6917627735501	630.96	96.8122789357754	2.50276675931696	96.8446239818707	1.48086628976268	
17	103.155010739559	567.864	102.965023548721	3.35927154244776	103.019807705531	1.86863294491471	
18	100.166954747103	500	96.8837054448093	-1.46429511248692	96.8947704517278	-0.865899400637601	
19	97.3889047541167	475.47	98.864756172499	1.25617300766386	98.8727363011303	0.727959504145782	
20	103.155010739559	441.672	94.7964832701889	3.94893182765996	94.878697835577	2.38538794756962	
21	92.2748107670285	398.11	96.9696058575912	1.16210865685993	96.9765691118578	0.686614464519599	
22	105.873061732696	358.299	95.6001613283824	-0.101999762626845	95.6002157422478	-0.0611312116115547	
23	103.155010739559	315.48	98.3021177628688	3.73737227079326	98.3731381432728	2.17729360049716	
24	100.166954747103	300	107.682997593387	-4.63194115974932	107.782572105163	-2.4630367521547	
25	105.873061732696	278.677	97.4588395890262	4.48146954940886	97.5618213409416	2.63278883512769	
26	94.735853760815	251.19	93.0432367502192	1.63927881123578	93.0576764161792	1.00935913367095	
27	108.666111725644	226.071	95.8685773684549	0.475188948783504	95.8697550387424	0.283993974005637	
28	105.873061732696	199.055	96.5244711944386	-1.05401516800603	96.5302257706901	-0.625626017788715	
29	103.155010739559	189.288	92.580951298305	0.609643391347004	92.5829585202576	0.377285910096886	
30	108.666111725644	175.833	100.206193629383	8.04612297677729	100.52870901711	4.59075350424887	
31	97.3889047541167	158.49	100.639277701235	1.98289552235209	100.658810299342	1.1287526005953	
32	111.889174717507	142.641	93.2072636114652	-2.77887143436295	93.2486788988771	-1.70770441576257	
33	108.666111725644	125.595	90.744516021314	-0.899168477204463	90.7489707483943	-0.567713345898893	
34	105.873061732696	119.433	95.615511292455	0.708329362982844	95.6181349441834	0.424445156007623	
35	111.889174717507	110.943	92.6862654469335	-1.53216179936695	92.6989283771871	-0.947048727302944	
36	100.166954747103	100	96.2367889547977	5.53023233636673	96.3955549702603	3.2888761908165	
37	115.412236708612	90	96.0627514123242	3.54483574308592	96.1281335996463	2.11332707303973	
38	111.889174717507	79.245	94.9880594729403	0.108067857528922	94.9881209472883	0.0651853454034176	
39	108.666111725644	75.357	94.9176024304049	-1.97528322182534	94.9381535260868	-1.19218201270961	
40	115.412236708612	70	95.0503390330335	-0.0832265705507596	95.0503754698352	-0.050168469315998	
41	103.155010739559	63.096	74.6575060829115	18.4363635888177	76.9002127233667	13.871430758187	
42	118.955302699667	56.7864	83.7481066663674	8.70781344174221	84.1995925473362	5.93606945295424	
43	115.412236708612	50	96.0790551237298	-0.83609817099234	96.0826929973356	-0.498586161163645	
44	111.889174717507	47.547	87.6044386462132	3.44009609607617	87.6719563581672	2.24876469849068	
45	118.955302699667	44.1672	95.0922944187349	-0.415887000355237	95.0932038571444	-0.250582006612413	
46	105.873061732696	39.811	97.2181549083191	0.500522473679921	97.2194433563811	0.294981651744352	
47	122.658374690317	35.8299	91.6729001281601	-1.91634804624719	91.6929277956701	-1.19754764712703	
48	118.955302699667	31.548	95.3508695885312	-1.09418543680015	95.3571474670839	-0.657460767485982	
49	115.412236708612	30	88.4658989212389	-0.496485739610037	88.4672920916679	-0.321550328041804	
50	122.658374690317	27.8677	92.498363533664	-2.83259243912163	92.5417248398366	-1.75402982013412	
51	108.666111725644	25.119	91.1575141592664	0.448763063157678	91.1586187696134	0.282061463012821	
52	126.551443680488	22.6071	93.1121524396674	3.41546912131528	93.1747732021201	2.10073833176273	
53	122.658374690317	19.9055	94.0243179569596	-0.987913535957998	94.0295078176312	-0.601984620118284	
54	118.955302699667	18.9288	95.4303951473552	-2.37792302848182	95.4600169490334	-1.42739392028934	
55	126.551443680488	17.5833	97.312750666884	0.575855674487995	97.3144544870543	0.339048217348834	
56	111.889174717507	15.849	87.226944362218	7.64280977408733	87.5611350087032	5.00745794235041	
57	130.819524669712	14.2641	94.8476656138995	-1.24454686046638	94.8558304443854	-0.751765370678008	
58	126.551443680488	12.5595	92.1624065825071	1.87476113425333	92.1814727393192	1.1653459607521	
59	122.658374690317	11.9433	97.5766565196946	0.782968251030123	97.5797977905498	0.459739194813006	
60	130.819524669712	11.0943	93.1490814969424	-2.29079283599663	93.1772456962614	-1.40877728485976	
61	115.412236708612	10	90.8387265208362	2.6229209856803	90.8765863708821	1.65392629196328	
62	135.107604658886	9	96.9363211352143	-1.1132642524916	96.9427135607688	-0.657983904632943	
63	130.819524669712	7.9245	91.8777718836121	1.35328652224353	91.8877377603146	0.843860251387347	
64	126.551443680488	7.5357	95.716515236528	-2.56155482133819	95.7507851253827	-1.53297742817554	
65	135.107604658886	7	94.3636572610556	3.66205625808421	94.4346889004212	2.22241417411971	
66	118.955302699667	6.3096	95.1792365013545	-2.47280373064764	95.2113534158142	-1.48823795841737	
67	140.060692646381	5.67864	94.4749040238335	2.4555692753921	94.5068109226991	1.4888830760294	
68	135.107604658886	5	97.9493289924783	-1.5347484194346	97.9613520873804	-0.897682635496365	
69	130.819524669712	4.7547	94.205645291864	-0.168001072042689	94.2057950935966	-0.10217797614576	
70	140.060692646381	4.41672	92.8871604714548	-1.66782565044665	92.9021324989372	-1.02865781351349	
71	122.658374690317	3.9811	92.410966961768	1.96572282571478	92.4318715651507	1.21858522578519	
72	145.513795632613	3.58299	88.9337139979871	-0.278531306626023	88.9341501627161	-0.179443941295721	
73	140.060692646381	3.1548	93.6434685145855	1.31642357282682	93.6527210841483	0.805401038297742	
74	135.107604658886	3	93.2974410840544	0.121042969192327	93.2975196038619	0.0743348081437133	
75	145.513795632613	2.78677	90.0057261529915	5.88312673614137	90.1977933240099	3.73975661770543	
76	126.551443680488	2.5119	100.309004002823	2.74688504692808	100.346607623274	1.56860890474794	
77	152.171919615803	2.26071	92.1513248879054	1.56876189542498	92.1646770323687	0.975295301478727	
78	145.513795632613	1.99055	96.9925494165783	0.862323559119147	96.9963826348591	0.509381381330602	
79	140.060692646381	1.89288	93.1176683997666	4.70874097614018	93.2366473538666	2.89484672384963	
80	152.171919615803	1.75833	96.2096128676048	-0.108505050715694	96.2096740534985	-0.0646180630059088	
81	130.819524669712	1.5849	95.9537685679311	-1.42824102667655	95.9643974337273	-0.852766301666004	
82	160.280069595332	1.42641	92.0431681907688	0.574045217145081	92.0449582459869	0.357331700004176	
83	152.171919615803	1.25595	95.5332864504707	0.541013076540989	95.5348183395807	0.324467373977307	
84	145.513795632613	1.19433	88.71735857104	3.01537247726434	88.7685878168574	1.94664986722908	
85	160.280069595332	1.10943	98.2109806265632	-1.26731149975166	98.2191569606895	-0.739301959504938	
86	135.107604658886	1	91.9464025282468	-2.25602985859348	91.9740757420767	-1.40554774713508	
87	171.098268568018	0.9	92.94519542081	-2.51136147237874	92.9791174848284	-1.54774446578138	
88	160.280069595332	0.79245	98.4051939606964	-1.14114332163966	98.4118102999981	-0.664393442625351	
89	152.171919615803	0.75357	90.8894847719398	-2.4918428511227	90.9236367668132	-1.57043824874095	
90	171.098268568018	0.7	92.8875847918159	-0.815567154808385	92.8911651247888	-0.503052751940748	
91	140.060692646381	0.63096	94.9548515482002	-4.11603537340871	95.0440191686773	-2.48206289165172	
92	171.098268568018	0.5	91.8613857602238	-3.54160260523176	91.92963147322	-2.20787473223728	
93	160.280069595332	0.47547	92.3306960532346	1.55716367506286	92.3438259570488	0.966205747239413	
94	145.513795632613	0.39811	81.531988483463	-2.16592028506533	81.5607525513883	-1.52172065421994	
95	171.098268568018	0.3	90.1619526317837	-2.09307491211279	90.1862443223118	-1.32986053416716	
96	152.171919615803	0.25119	101.387643669743	5.75771391178814	101.550999790218	3.25028518791439	
97	160.280069595332	0.15849	91.3758527433847	6.09228864744862	91.5787226682299	3.81442762276816	
98	171.098268568018	0.1	98.8594864013878	-3.16295322030887	98.9100719068591	-1.83252087017174	
10/14/2021
Index	Time (s)	Frequency (Hz)	Z' (Ω)	-Z'' (Ω)	Z (Ω)	-Phase (°)	OCP value (V)
1	253.458901360078	10000	83.2327174663803	9.65834854693223	83.791222413164	6.61901559918148	0.000862884521484378
2	255.641942354566	6309.6	87.6688372036131	10.0501668789468	88.2430216556998	6.53971664177477	
3	258.039985348512	3981.1	90.256520921162	9.78031023525213	90.7848777996089	6.18451162087352	
4	260.353027342672	2511.9	93.9001420021159	7.93274115672315	94.2346276603092	4.8289161651804	
5	272.686256311533	2260.71	90.7308359427064	10.9447542264193	91.3885782575647	6.87828839118203	
6	272.686256311533	1758.33	94.389494734665	10.3624327438465	94.9566044498017	6.26505614968684	
7	262.751073336617	1584.9	95.9421634584556	5.52404555531976	96.1010603915808	3.29527114762019	
8	275.389306304709	1426.41	98.2789664735714	10.8082494372563	98.8714999735077	6.27589479373257	
9	272.686256311533	1255.95	102.77175842432	5.54853300351369	102.921429003478	3.09033521048633	
10	275.389306304709	1109.43	95.4337150623756	5.23138556581143	95.5769918209653	3.13763985959162	
11	265.119118330639	1000	97.5673735740093	3.84036030735908	97.6429247483945	2.25406199777503	
12	278.15735829772	900	99.73603993988	11.2644999358215	100.370148060534	6.44385731969406	
13	275.389306304709	792.45	98.5106673874018	12.2292706939925	99.2668456777903	7.07658453184049	
14	272.686256311533	753.57	99.8146536364055	1.20242813785827	99.8218959646745	0.690186486592027	
15	278.15735829772	700	94.6639577637677	4.51777473381445	94.7717003543035	2.73233001990946	
16	267.642162324268	630.96	98.6148862988181	2.44067089058043	98.6450843890609	1.41775348987136	
17	281.130412290214	567.864	98.1256155764479	6.27521317587545	98.3260633436502	3.65912902044612	
18	278.15735829772	500	102.434305626787	3.31908837768284	102.488064265557	1.85585525965799	
19	275.389306304709	475.47	98.8058109307896	2.91650695630144	98.8488456509084	1.69074097569543	
20	281.130412290214	441.672	95.8687954973724	-0.38150812604965	95.8695545966875	-0.228006307713875	
21	270.175210317873	398.11	97.1422192268349	1.47399283826934	97.1534014391761	0.869313968667833	
22	284.358472282064	358.299	101.082583976582	0.292273188027136	101.08300651939	0.16566625834658	
23	281.130412290214	315.48	94.8718054887101	0.659298810691481	94.8740963151134	0.398162879004593	
24	278.15735829772	300	89.3275314948901	7.9216267405096	89.6780912664099	5.06777199231359	
25	284.358472282064	278.677	101.239146103898	-0.0934354304883223	101.239189220509	-0.0528792913611787	
26	272.686256311533	251.19	99.8679371471605	0.926215186063825	99.8722320998189	0.53136873686817	
27	287.881539273169	226.071	96.8357050667357	1.11208182487803	96.8420905482582	0.65796798855693	
28	284.358472282064	199.055	98.8007623210339	-1.90984218861221	98.8192194484597	-1.10740310234368	
29	281.130412290214	189.288	104.399642568071	-5.58739207025868	104.549052212288	-3.06350525695249	
30	287.881539273169	175.833	104.262776259671	3.94879613488422	104.337526826588	2.16895498378496	
31	275.389306304709	158.49	94.8276563759612	-1.22683620486553	94.8355921625997	-0.741224848547798	
32	291.834611263188	142.641	96.2437651828814	-0.587717902573422	96.2455596321753	-0.349875513931731	
33	287.881539273169	125.595	98.4153275943975	1.70736259268749	98.4301366073191	0.993898619872609	
34	284.358472282064	119.433	99.4671451802146	-0.0245794032546063	99.4671482171322	-0.0141584041466379	
35	291.834611263188	110.943	102.930892856611	-4.77935788718914	103.041792327546	-2.65848750819008	
36	278.15735829772	100	99.986036781632	-1.66688167690933	99.9999302290891	-0.955097749137358	
37	296.20269225216	90	93.2680863146177	1.86940612755969	93.2868190263808	1.14824637008498	
38	291.834611263188	79.245	93.4492908725692	-5.88801093596813	93.6346017098814	-3.60530081858368	
39	287.881539273169	75.357	91.8744628536188	-2.52291058995933	91.9090964077327	-1.57297040429615	
40	296.20269225216	70	98.3372511645281	1.03558900721431	98.3427039041908	0.603359209433048	
41	281.130412290214	63.096	124.257137065233	6.20893872047598	124.412165931161	2.86060305202355	
42	300.790776240576	56.7864	94.8215091866537	9.78324696522697	95.3248683482819	5.89067148619874	
43	296.20269225216	50	95.5393087289354	1.13730311032823	95.5460777361771	0.682018651766886	
44	291.834611263188	47.547	101.412367700078	-3.63879574335439	101.477628849899	-2.05495877145954	
45	300.790776240576	44.1672	99.7870062345472	5.95072521811594	99.9642823406195	3.41275025702534	
46	284.358472282064	39.811	101.338313000556	-4.26075880562505	101.427845029846	-2.40757706127136	
47	304.683850230747	35.8299	96.4161735418195	2.48210351180234	96.4481174429525	1.47467635412332	
48	300.790776240576	31.548	95.6873559748862	1.84731274077184	95.7051861595118	1.10599854827409	
49	296.20269225216	30	96.4686589552205	-2.03494942056619	96.490119596583	-1.20844142985248	
50	304.683850230747	27.8677	97.0305346177355	-0.00377660069254509	97.0305346912315	-0.00223005347061336	
51	287.881539273169	25.119	98.1601379961281	-2.73201605556119	98.1981496930912	-1.59425804567092	
52	308.616922220817	22.6071	96.3054375236826	-1.94136264816267	96.3250029097307	-1.15483430655393	
53	304.683850230747	19.9055	94.484290867738	-3.13011528826974	94.5361245371164	-1.89742472498526	
54	300.790776240576	18.9288	98.8674788113882	2.1250677851404	98.8903143872631	1.23133179310904	
55	308.616922220817	17.5833	97.8863661780119	1.43670622044339	97.8969090845043	0.840886180685044	
56	291.834611263188	15.849	100.367392250603	-4.57743541716928	100.471719116301	-2.61126760294002	
57	312.980002209801	14.2641	96.6464439254607	-2.61730741242763	96.6818774203747	-1.55126270909879	
58	308.616922220817	12.5595	94.9004728355355	0.335885288173324	94.9010672402319	0.202788547610911	
59	304.683850230747	11.9433	99.171071942284	1.84927227284042	99.1883124068595	1.06828751454612	
60	312.980002209801	11.0943	97.5552380789488	2.7807589236637	97.5948620411541	1.63274287875127	
61	296.20269225216	10	94.5964163763787	7.97420193790327	94.9319223854635	4.8184752547493	
62	317.643088198028	9	92.8359012707605	-1.18048926396886	92.8434064414741	-0.728526427023283	
63	312.980002209801	7.9245	94.4603365763243	2.106672724456	94.4838253675222	1.27760977916252	
64	308.616922220817	7.5357	94.4469877788382	-0.977360254227627	94.4520446235155	-0.592889410081869	
65	317.643088198028	7	94.713158126165	1.27598304738105	94.7217528077323	0.771846513073783	
66	300.790776240576	6.3096	95.7483754383045	-1.46122428458487	95.7595247246161	-0.874328001026242	
67	322.701182185258	5.67864	92.35699764475	-2.62576260519893	92.3943160763216	-1.62851331197275	
68	317.643088198028	5	96.223274783827	-2.35721042432999	96.2521430987822	-1.40331122407549	
69	312.980002209801	4.7547	93.2830164186408	3.65992169884353	93.3547865885948	2.24682449364323	
70	322.701182185258	4.41672	96.8458816037674	2.15657240303999	96.8698899975657	1.27565651103413	
71	304.683850230747	3.9811	92.5720153811204	-0.431555670256735	92.5730212968062	-0.267101664663429	
72	329.529308168018	3.58299	106.739149715754	3.09612362581671	106.78404404942	1.6614811939686	
73	322.701182185258	3.1548	94.1668650431679	-1.15680874065713	94.1739702811805	-0.703824265880367	
74	317.643088198028	3	93.4738819228759	0.2442576761879	93.4742010586029	0.149719919803981	
75	329.529308168018	2.78677	105.827230543909	-4.26887344880445	105.913294751488	-2.30995272255629	
76	308.616922220817	2.5119	94.2213140064429	4.2650119337349	94.3177943968985	2.59177541692276	
77	336.282435150968	2.26071	94.0717515515722	0.758481915233509	94.0748092466653	0.461954520743615	
78	329.529308168018	1.99055	105.344477248039	4.53233046230201	105.441931441349	2.46356868274295	
79	322.701182185258	1.89288	95.6772706725923	3.86823975139554	95.7554353659925	2.3152120498337	
80	336.282435150968	1.75833	92.5233735452816	1.17663417311114	92.5308549629639	0.72860008884721	
81	312.980002209801	1.5849	94.9898781783765	2.71936283541906	95.0287950600946	1.63981123858151	
82	344.310585130699	1.42641	101.885350151536	2.08527723014957	101.906687497081	1.17250326570813	
83	336.282435150968	1.25595	93.8926657031031	-2.41716988865494	93.9237743231461	-1.47469505171848	
84	329.529308168018	1.19433	100.49542970941	-0.189875303358506	100.49560908373	-0.108254082820801	
85	344.310585130699	1.10943	91.4016754764443	-9.50294983897877	91.894354209295	-5.93566453723043	
86	317.643088198028	1	92.5563554662848	4.26599892289973	92.6546150173398	2.63894219963807	
87	366.551997074545	0.9	94.3813549895274	-0.731060697343506	94.3841862782235	-0.443793743573816	
88	344.310585130699	0.79245	91.7171042959266	0.258165289871762	91.7174676370143	0.161275724681677	
89	336.282435150968	0.75357	93.4613043036235	1.41976903004687	93.4720875247429	0.870312236944799	
90	366.551997074545	0.7	91.2499141513766	2.30517711703826	91.2790264747303	1.44711187406461	
91	322.701182185258	0.63096	83.6557231862733	1.28339758398976	83.6655671777642	0.878929666788741	
92	366.551997074545	0.5	93.7056973954235	-1.04316794981697	93.7115036894308	-0.637812359654779	
93	344.310585130699	0.47547	98.5431273888241	7.82849831454176	98.8535954906588	4.54217245380851	
94	329.529308168018	0.39811	90.331333134191	16.1808711846006	91.7691142928427	10.1555725068658	
95	366.551997074545	0.3	96.3428292503105	-0.654030545965379	96.3450491925223	-0.388950735787844	
96	336.282435150968	0.25119	103.587694941277	5.74515592085667	103.746890844025	3.17447256309019	
97	344.310585130699	0.15849	98.2521364921109	-14.8953410453567	99.3748132582994	-8.6205812781546	
98	366.551997074545	0.1	88.8289146169302	0.139178991914479	88.8290236511336	0.0897721461810572	
10/14/2021
Index	Time (s)	Frequency (Hz)	Z' (Ω)	-Z'' (Ω)	Z (Ω)	-Phase (°)	OCP value (V)
1	448.656624867251	10000	82.8742346952907	7.85850280429476	83.2459899493978	5.41684339353527	0.000888061523437497
2	450.929662861512	6309.6	86.1287757959765	7.65056389323805	86.4678966322074	5.07609172958739	
3	453.407709855256	3981.1	87.8183517908264	7.47184631526187	88.1356420446135	4.86318269732374	
4	455.725752849403	2511.9	89.9994842715421	6.3007193592607	90.2197663130853	4.0046515389867	
5	468.023982818353	2260.71	89.0401363530254	9.02560429143681	89.4964100653818	5.78804942277923	
6	468.023982818353	1758.33	90.2787254759648	8.12424209049957	90.6435413204365	5.14223371529081	
7	458.038797843563	1584.9	91.7542389576591	4.6819829513477	91.8736160769561	2.92112276410997	
