10/14/2021									
Index	Time (s)	Frequency (Hz)	Z' (Ω)	-Z'' (Ω)	Z (Ω)	-Phase (°)	OCP value (V)	A ratio	meas start time (s)
1	17.5594419556667	10000	109.046418533477	38.3484772652251	115.592937083283	19.3753012566497	-0.000423812866210941	1.20749444	3717089768.625870
2	19.7624779501045	6309.6	117.156742422573	49.4378490495034	127.160541103404	22.8787915631112			
3	22.120523944151	3981.1	122.591836759923	65.1197864465242	138.814066387425	27.9768766028873			
4	24.3535649385132	2511.9	125.332630811797	91.1610930504048	154.979396154298	36.0303898343303			
5	36.4567889079555	2260.71	126.394059639957	97.3225505139162	159.521588353435	37.5960220207592			
6	36.4567889079555	1758.33	121.679020344012	127.517318671217	176.256774488175	46.3421090838072			
7	26.716608932547	1584.9	126.973503823357	137.013816496753	186.802185705055	47.1780985534418			
8	39.054836901396	1426.41	123.664721032829	154.073761934644	197.564387845636	51.2483141688967			
9	36.4567889079555	1255.95	131.14527435442	170.870107983025	215.396557046826	52.4932408088861			
10	39.054836901396	1109.43	124.320082845851	198.152556539938	233.922890419285	57.8960123753038			
11	28.9896509268082	1000	129.410084150065	215.048555131577	250.983766295563	58.9616712830207			
12	41.777884894521	900	125.820276546225	246.49488521651	276.749833654998	62.9585211074427			
13	39.054836901396	792.45	130.26965716916	278.784865570356	307.719328041077	64.9544139978513			
14	36.4567889079555	753.57	136.215954405627	284.219467957333	315.175335647613	64.3933107283744			
15	41.777884894521	700	138.181872534997	311.592205587498	340.857642543276	66.0841382568589			
16	31.4426939206148	630.96	142.965927538252	343.046792443964	371.645473863149	67.3758993707608			
17	44.1009308886559	567.864	149.753193416473	380.581857445203	408.984803085484	68.521114154595			
18	41.777884894521	500	157.80899487381	432.952439824904	460.816117354221	69.9734553185648			
19	39.054836901396	475.47	164.043793304921	459.34280913614	487.756273590558	70.3469735405802			
20	44.1009308886559	441.672	172.686430228515	494.179164899064	523.482234851771	70.7384950330289			
21	33.9657409142447	398.11	183.273734480793	543.383356973817	573.458572511276	71.3616459493001			
22	46.6389788822479	358.299	200.029932125088	602.220264500247	634.571682885957	71.6258810720521			
23	44.1009308886559	315.48	226.396132047211	679.253342654746	715.989044688243	71.566694686108			
24	41.777884894521	300	222.576876378526	712.601557913344	746.553043151622	72.6541146021298			
25	46.6389788822479	278.677	249.919057010421	766.302332983932	806.02655079941	71.9369693135024			
26	36.4567889079555	251.19	287.506029631453	835.897883013223	883.959833872801	71.0194088212445			
27	49.4020288752719	226.071	319.116372767611	924.151804245591	977.697200905648	70.9498324411348			
28	46.6389788822479	199.055	376.249564084258	1032.73064439577	1099.13434954409	69.9820545939265			
29	44.1009308886559	189.288	392.49222596356	1080.03688493255	1149.14308084618	70.0285357162494			
30	49.4020288752719	175.833	449.505497124484	1149.61565084765	1234.37082621836	68.6442518537466			
31	39.054836901396	158.49	509.335201800593	1251.28469546857	1350.97584615977	67.851228384259			
32	52.4750858675131	142.641	585.859758184667	1363.36506701559	1483.91238360579	66.7460302959991			
33	49.4020288752719	125.595	703.713597586476	1503.49164251354	1660.0301041054	64.9179204643061			
34	46.6389788822479	119.433	753.790106278382	1554.11203355266	1727.27060333821	64.1252487124477			
35	52.4750858675131	110.943	843.286638312953	1642.09647229817	1845.97215003132	62.8175661091803			
36	41.777884894521	100	974.90440918902	1757.97289852394	2010.20081559053	60.9889286106609			
37	55.8531458589844	90	1114.87147794904	1866.57608233006	2174.17678293899	59.1509065870892			
38	52.4750858675131	79.245	1327.45534763941	1997.04108616526	2397.98056702063	56.3875732004225			
39	49.4020288752719	75.357	1416.2809635868	2027.69401502646	2473.33677173014	55.0669030272734			
40	55.8531458589844	70	1550.60531688431	2099.81884807326	2610.29041362711	53.5560904365861			
41	44.1009308886559	63.096	1740.5246393899	2170.13616560861	2781.89090325372	51.2691749679917			
42	59.2962108502915	56.7864	1992.24797231232	2238.76355495572	2996.85072003604	48.334510507192			
43	55.8531458589844	50	2264.33543987115	2259.15847380676	3198.59531576431	44.9344271966914			
44	52.4750858675131	47.547	2376.32434107759	2274.16130690698	3289.1833369137	43.7415143808239			
45	59.2962108502915	44.1672	2544.29985245527	2267.50454491892	3408.08430066392	41.7077330333181			
46	46.6389788822479	39.811	2775.87672254913	2242.35276629244	3568.42227143726	38.9312720014046			
47	62.8542768413082	35.8299	2999.7194813573	2190.9061093976	3714.61795438376	36.1432836894187			
48	59.2962108502915	31.548	3255.99252491782	2111.33480125588	3880.62133753281	32.9612242011642			
49	55.8531458589844	30	3350.30637687596	2071.88604142085	3939.19593160461	31.7333465239387			
50	62.8542768413082	27.8677	3487.23540191479	2002.56173169382	4021.3261789629	29.8668044997149			
51	49.4020288752719	25.119	3661.42779695997	1907.29859815946	4128.4187596333	27.5157562813824			
52	66.4623428321987	22.6071	3815.05123201302	1790.67221420659	4214.39472304334	25.1439719065399			
53	62.8542768413082	19.9055	3985.55294367994	1654.27556389232	4315.23578824692	22.5417745668639			
54	59.2962108502915	18.9288	4039.423178354	1601.75679226766	4345.40728072745	21.6298642052147			
55	66.4623428321987	17.5833	4115.5752330907	1516.60711359783	4386.12090989807	20.2290583047316			
56	52.4750858675131	15.849	4211.37459166438	1403.90321427435	4439.21391536454	18.4363163240191			
57	70.1954118227736	14.2641	4301.54229584875	1285.52592078151	4489.52592329935	16.6388977882794			
58	66.4623428321987	12.5595	4381.68468243092	1166.12733465086	4534.20484946034	14.9030673532648			
59	62.8542768413082	11.9433	4416.56846283581	1119.85650097348	4556.33137180435	14.227951834991			
60	70.1954118227736	11.0943	4449.18767049836	1046.93798536877	4570.70564273424	13.2413777082717			
61	55.8531458589844	10	4488.61711739704	951.095105732164	4588.27478762305	11.9634795150647			
62	74.1784878127173	9	4540.72477040693	870.350076383234	4623.38519875289	10.8506461858885			
63	70.1954118227736	7.9245	4570.24196074503	774.785238665505	4635.45075972214	9.62177461707061			
64	66.4623428321987	7.5357	4582.46064179513	741.261368659807	4642.02692261353	9.188604216156			
65	74.1784878127173	7	4604.02694165719	692.698728619273	4655.84531617364	8.55625806484542			
66	59.2962108502915	6.3096	4630.18342404616	634.612197438233	4673.47099931616	7.80432366404771			
67	78.6465698014365	5.67864	4643.06378351286	565.382747632057	4677.36025436236	6.94268823667108			
68	74.1784878127173	5	4659.01680973745	507.158691387897	4686.53897579722	6.21248831314573			
69	70.1954118227736	4.7547	4666.86811863206	485.474545815557	4692.05110493686	5.93887676366851			
70	78.6465698014365	4.41672	4676.50031480515	451.553397889004	4698.25027701992	5.51526639963943			
71	62.8542768413082	3.9811	4691.92304290135	407.852832304982	4709.61630850411	4.96803816676467			
72	83.8646677882621	3.58299	4700.47400608998	366.16727001582	4714.71466279333	4.45434967303963			
73	78.6465698014365	3.1548	4706.50852096484	332.912891760888	4718.2680563333	4.04605375454046			
74	74.1784878127173	3	4711.93075598462	313.362555146203	4722.33920214988	3.80479963911101			
75	83.8646677882621	2.78677	4712.45242701145	292.74451059923	4721.53653224585	3.55473055188575			
76	66.4623428321987	2.5119	4709.8697640444	268.167095625014	4717.49793698266	3.25874647459831			
77	89.9477787729037	2.26071	4721.03542378145	239.696108608463	4727.11642516676	2.90652190042873			
78	83.8646677882621	1.99055	4728.6450105622	208.328835492902	4733.2319338495	2.52263579861873			
79	78.6465698014365	1.89288	4727.03707473769	199.598983080157	4731.2492282685	2.41787608239671			
80	89.9477787729037	1.75833	4731.00555875554	185.90002026859	4734.65652550548	2.25022135199134			
81	70.1954118227736	1.5849	4732.63182059877	159.072113879295	4735.30441331474	1.92508760241792			
82	97.3159137543009	1.42641	4739.21365346036	151.122068663105	4741.62250002908	1.82640505125617			
83	89.9477787729037	1.25595	4739.68716887888	133.220585806023	4741.55904564286	1.61001515476682			
84	83.8646677882621	1.19433	4741.85052013269	114.972213028111	4743.244139305	1.38893710789573			
85	97.3159137543009	1.10943	4738.36311843098	111.495230730306	4739.67469649369	1.34793965536141			
86	74.1784878127173	1	4730.70195738126	91.7952231726817	4731.59247744015	1.11163606640824			
87	107.224097729285	0.9	4741.71288073861	84.2470792867661	4742.46124008734	1.01787990476698			
88	97.3159137543009	0.79245	4739.88005159685	70.1594808147035	4740.39927182025	0.84802749411613			
89	89.9477787729037	0.75357	4741.72226052923	67.8026561777027	4742.20699634497	0.819225818700132			
90	107.224097729285	0.7	4743.55374742342	60.8751410077998	4743.94434384379	0.735249853998856			
91	78.6465698014365	0.63096	4725.71391075498	39.4482538736873	4725.87855652648	0.478269739163277			
92	107.224097729285	0.5	4738.24887198784	28.6816558584486	4738.33567935797	0.346819638128916			
93	97.3159137543009	0.47547	4733.89712555624	39.2264174868449	4734.05964339049	0.474758253100069			
94	83.8646677882621	0.39811	4735.93448539993	33.2810852049422	4736.05142292952	0.402631062002285			
95	107.224097729285	0.3	4741.05544985165	13.4368720181378	4741.07449088259	0.162384516133152			
96	89.9477787729037	0.25119	4732.10626720259	6.00142641630708	4732.11007281288	0.0726645178576623			
97	97.3159137543009	0.15849	4724.10170353279	-0.558730048100778	4724.10173657392	-0.00677649964015536			
98	107.224097729285	0.1	4718.63597529597	-26.4331744869591	4718.7100122884	-0.320960019639129			
10/14/2021									
Index	Time (s)	Frequency (Hz)	Z' (Ω)	-Z'' (Ω)	Z (Ω)	-Phase (°)	OCP value (V)	A ratio	meas start time (s)
1	186.455679529245	10000	108.100661787208	38.6553902916288	114.804147474864	19.6763892201344	-0.000463485717773432	1.38944491	3717089939.221117
2	188.668716523657	6309.6	115.716280311784	48.8543335278583	125.606542161014	22.8890171873155			
3	191.076761517578	3981.1	120.756092609497	64.9002523787974	137.09149011206	28.2557665714297			
4	193.464805511548	2511.9	123.418320731264	90.930705041377	153.29864647624	36.3816106212736			
5	205.463030481256	2260.71	120.586593047175	98.0437768318574	155.414634440197	39.1130779165789			
6	205.463030481256	1758.33	125.188790786363	129.260231265174	179.945660479152	45.9167119150151			
7	195.762849505746	1584.9	124.567836212835	136.953363030526	185.130682125138	47.7114764418759			
8	208.031074474772	1426.41	122.231922696725	154.166435186408	196.743316695188	51.5906171269714			
9	205.463030481256	1255.95	127.452796836805	174.316764411809	215.941079409467	53.827360974706			
10	208.031074474772	1109.43	127.77062182393	196.505630417379	234.392394473467	56.9675322213504			
11	198.045892499982	1000	127.582239706747	215.130505207395	250.11669708234	59.3301183047534			
12	210.82412846772	900	134.200519011059	235.757570551974	271.277369818064	60.3501262549866			
13	208.031074474772	792.45	133.560206026252	271.815033568655	302.855974198469	63.8321454470003			
14	205.463030481256	753.57	134.820809193646	285.334390505281	315.582580312428	64.7092147727254			
15	210.82412846772	700	135.129021397843	308.782721481128	337.05581364105	66.3649253053138			
16	200.548936493663	630.96	140.204872306246	342.614893064865	370.192343476009	67.7446398029214			
17	213.317172461426	567.864	142.287125077559	384.508552712346	409.990796325698	69.6930412186335			
18	210.82412846772	500	155.296676713118	430.72016951556	457.861247787636	70.1731701686712			
19	208.031074474772	475.47	158.911470410574	453.454771844895	480.493585323422	70.6871850760216			
20	213.317172461426	441.672	167.205982564778	498.513322885031	525.807354170069	71.4580704974996			
21	203.036982487381	398.11	179.241648064167	542.034843951894	570.902216197058	71.7018330308676			
22	215.930221454829	358.299	193.23365975301	603.764047231279	633.932387554569	72.2528178375464			
23	213.317172461426	315.48	222.598610301014	680.512505537046	715.99400241919	71.8868534379483			
24	210.82412846772	300	220.67949125835	698.945826661045	732.956142254729	72.4774314689924			
25	215.930221454829	278.677	249.383731247523	767.487209693301	806.987523109091	71.9991883398178			
26	205.463030481256	251.19	279.655887057246	842.290232547712	887.502254087872	71.6328820784756			
27	218.823274447524	226.071	322.154319598709	922.389317870135	977.028893818929	70.7476996387799			
28	215.930221454829	199.055	367.943857083395	1032.96015902219	1096.53516682893	70.3939311821997			
29	213.317172461426	189.288	397.64215550766	1066.84583694492	1138.54263145632	69.5582215356837			
30	218.823274447524	175.833	424.004380316825	1150.16981752669	1225.83454172137	69.7638424150783			
31	208.031074474772	158.49	503.032555478233	1254.80666196726	1351.88073097754	68.1549152524489			
32	221.981335439551	142.641	579.331568490315	1369.58414266812	1487.07289333691	67.0717274691507			
33	218.823274447524	125.595	694.985921041646	1508.25297418801	1660.6722929564	65.2602840245305			
34	215.930221454829	119.433	753.716667155078	1562.05924979837	1734.39266437217	64.2420041196143			
35	221.981335439551	110.943	828.641455302085	1644.45265131557	1841.43182981721	63.2564159801085			
36	210.82412846772	100	960.016624259665	1759.12180838581	2004.03130105133	61.377100188133			
37	225.289396431199	90	1114.42346011471	1871.86346636617	2178.48857815927	59.2323307061794			
38	221.981335439551	79.245	1319.00864015748	1998.78695819404	2394.77203446522	56.5789978211499			
39	218.823274447524	75.357	1410.80140330497	2038.91217843885	2479.41998680206	55.3191566681834			
40	225.289396431199	70	1553.61560569652	2102.19410895845	2613.98957955142	53.5339391143327			
41	213.317172461426	63.096	1791.97784017184	2153.44628567989	2801.52020963181	50.2346616133018			
42	228.702458422582	56.7864	1971.74232562487	2259.09492607285	2998.54592822399	48.8854827434538			
43	225.289396431199	50	2260.69451406694	2273.07666861275	3205.87230365216	45.1564797613925			
44	221.981335439551	47.547	2354.68328678523	2263.35671144652	3266.08588134417	43.8670636590327			
45	228.702458422582	44.1672	2538.35313800831	2265.17991686422	3402.09886819911	41.7451390336516			
46	215.930221454829	39.811	2774.96399835178	2248.55592189337	3571.61433052762	39.0178824042612			
47	232.2205254137	35.8299	2993.74545078708	2199.43757664556	3714.84016852257	36.3038896057057			
48	228.702458422582	31.548	3252.59372085081	2112.23915540416	3878.26251851787	32.9997533800714			
49	225.289396431199	30	3358.23870262104	2074.38652686499	3947.25811755715	31.7036559274944			
50	232.2205254137	27.8677	3487.65560203099	2014.90819672602	4027.85260897316	30.0161293757127			
51	218.823274447524	25.119	3664.0683091669	1917.93328161938	4135.68188416185	27.6295231584847			
52	235.908593404388	22.6071	3823.79851088733	1796.70613597526	4224.87727524898	25.1676435026055			
53	232.2205254137	19.9055	3984.01932865715	1665.04129370319	4317.95930050881	22.6815144699604			
54	228.702458422582	18.9288	4055.04468900801	1609.52740575338	4362.79335973219	21.6491065483498			
55	235.908593404388	17.5833	4124.63081719957	1521.64796534197	4396.36121225517	20.2498938815518			
56	221.981335439551	15.849	4223.2466308373	1413.49151477816	4453.51213843955	18.5050382940302			
57	239.64666239495	14.2641	4302.73906016136	1298.88289280994	4494.51445531913	16.7976737052144			
58	235.908593404388	12.5595	4394.25481731837	1171.82702615566	4547.81859562962	14.9317305332025			
59	232.2205254137	11.9433	4418.82864121957	1116.4109608388	4557.67703923209	14.1789822465763			
60	239.64666239495	11.0943	4455.72517527396	1047.44845494825	4577.18637411059	13.2288532267064			
61	225.289396431199	10	4513.25473542903	963.886605684129	4615.03474477602	12.0554324521919			
62	243.664736384806	9	4550.09260448711	873.688544172858	4633.21426027625	10.8693847343466			
63	239.64666239495	7.9245	4590.23690924536	780.169348179774	4656.06476488866	9.64597171047681			
64	235.908593404388	7.5357	4599.85249444163	741.735207237416	4659.27184099365	9.1602044677361			
65	243.664736384806	7	4617.77658092799	699.859107339851	4670.50996375059	8.61802536056226			
66	228.702458422582	6.3096	4641.29224379938	628.083935582285	4683.59724170309	7.7067476966578			
67	248.112817373575	5.67864	4658.06342596312	570.474242322512	4692.86647385675	6.9822587116219			
68	243.664736384806	5	4672.6552565847	509.323451533626	4700.33163991337	6.22073038363994			
69	239.64666239495	4.7547	4674.86554342601	485.9315122785	4700.05290222748	5.93433022078123			
70	248.112817373575	4.41672	4687.23649124479	455.414782234528	4709.3087124051	5.54947425597984			
71	232.2205254137	3.9811	4694.24912761263	409.4180947747	4712.06940191046	4.98454989462187			
72	253.120909360931	3.58299	4703.05316704197	366.858377556035	4717.33973349456	4.46028543940831			
73	248.112817373575	3.1548	4716.87621316811	330.24454329446	4728.42285214921	4.00493698671788			
74	243.664736384806	3	4713.72642245389	311.517502078775	4724.00888439484	3.7810257876529			
75	253.120909360931	2.78677	4717.34174922679	293.870794208977	4726.48635062951	3.56468256748982			
76	235.908593404388	2.5119	4728.43577174073	269.298915100628	4736.09826261573	3.25964897302981			
77	259.074020345901	2.26071	4707.72876301002	235.36676659933	4713.60876833146	2.86216640895934			
78	253.120909360931	1.99055	4733.34308986532	206.3071462855	4737.83700067702	2.49571006765279			
79	248.112817373575	1.89288	4738.44189657148	190.091837669091	4742.25331608639	2.29730006110787			
80	259.074020345901	1.75833	4713.46125710103	178.659618524231	4716.84600993966	2.17070714389485			
81	239.64666239495	1.5849	4738.98489815808	168.138507153152	4741.96672516352	2.03199371932244			
82	266.657162326755	1.42641	4699.7754591118	147.213948136531	4702.08053021165	1.79412420363406			
83	259.074020345901	1.25595	4722.60334400538	124.012095782496	4724.23129669909	1.50419941881191			
84	253.120909360931	1.19433	4747.02309242808	122.319469223165	4748.59877149001	1.47604903110616			
85	266.657162326755	1.10943	4705.70236333682	108.01841295653	4706.94197009602	1.31498169605096			
86	243.664736384806	1	4747.86280553161	104.704248618947	4749.0171825157	1.26333458939221			
87	276.770347301222	0.9	4701.51811624916	81.8707832831206	4702.23089847515	0.997630163692292			
88	266.657162326755	0.79245	4706.9336149953	70.3299399461083	4707.45901271859	0.856036907065112			
89	259.074020345901	0.75357	4724.62579269809	70.5321513196296	4725.15223727213	0.855283486165716			
90	276.770347301222	0.7	4699.40119391379	60.664846894589	4699.79274064369	0.739593512457975			
91	248.112817373575	0.63096	4749.77314357339	61.1013951646208	4750.16613350545	0.73701603566232			
92	276.770347301222	0.5	4697.23426445761	38.3021846424821	4697.39042368665	0.467190854278142			
93	266.657162326755	0.47547	4697.75937718063	31.4242163742713	4697.86447731981	0.383256777253625			
94	253.120909360931	0.39811	4743.20543675685	41.1937006014353	4743.38431251875	0.497588789019494			
95	276.770347301222	0.3	4697.68065928553	4.93113349630994	4697.68324737874	0.0601430906600844			
96	259.074020345901	0.25119	4697.41346062577	-8.56727899128721	4697.4212732453	-0.104497589569194			
97	266.657162326755	0.15849	4689.27908831819	-11.4515726805151	4689.29307109879	-0.13992033033364			
98	276.770347301222	0.1	4679.48131965615	-13.4057262894836	4679.50052190489	-0.164139865936115			
10/14/2021									
Index	Time (s)	Frequency (Hz)	Z' (Ω)	-Z'' (Ω)	Z (Ω)	-Phase (°)	OCP value (V)	A ratio	meas start time (s)
1	355.739924101843	10000	108.847887617255	34.6224194587871	114.221602895069	17.6448664735578	-0.000520133972167968	1.50648355	3717090108.619774
2	357.932963096306	6309.6	114.452732115318	44.7888132627349	122.904294807565	21.3719079698782			
3	360.311007090302	3981.1	119.202655929352	61.514537142148	134.139149618686	27.2959988925282			
4	362.569050084601	2511.9	121.050052093565	88.5082071414434	149.956053039707	36.1731638194335			
