10/14/2021
Index	Time (s)	Frequency (Hz)	Z' (Ω)	-Z'' (Ω)	Z (Ω)	-Phase (°)	OCP value (V)
1	27.3905999308454	10000	103.672866069468	42.5152138854225	112.05180306796	22.2980474546383	0.0004730224609375
2	29.7286409249424	6309.6	111.846782747746	53.6233252982443	124.036945411691	25.6147160349037	
3	32.0966839189637	3981.1	118.844902791378	68.4947848613594	137.170136956613	29.9564642361494	
4	34.3847269131869	2511.9	122.681695795184	94.7226737401662	154.994139901056	37.6717703191054	
5	46.2229468832983	2260.71	120.317375309516	104.514675149347	159.372482326607	40.9794814745092	
6	46.2229468832983	1758.33	122.367048357625	129.068475341052	177.854901114985	46.5267238213944	
7	36.6677669074228	1584.9	125.111595490504	139.985866905723	187.747048604036	48.2114239200491	
8	48.8059918767767	1426.41	126.72127138099	158.614648570824	203.019426069675	51.3777541791518	
9	46.2229468832983	1255.95	128.126609404992	179.648516346491	220.658146151722	54.5032621946594	
10	48.8059918767767	1109.43	127.803405652847	201.009481995838	238.198493590328	57.5514791897358	
11	38.9808099015829	1000	129.48863177551	219.801831993112	255.108116504791	59.4970086091037	
12	51.4390408701289	900	123.46960200261	242.620025641265	272.230085517474	63.0284060043652	
13	48.8059918767767	792.45	126.714590369324	281.17155789864	308.405629623737	65.7405076859516	
14	46.2229468832983	753.57	138.674506857888	292.612093280599	323.809289530631	64.6428256898099	
15	51.4390408701289	700	139.119969534357	311.339049019463	341.007872882114	65.9228092924964	
16	41.4738578952886	630.96	146.201782892767	349.397288729825	378.752460972568	67.2936179235855	
17	53.9920898636831	567.864	151.947948876416	384.134085446548	413.09463173661	68.4182470127774	
18	51.4390408701289	500	163.490658037218	440.139837652038	469.523451974239	69.6224040439486	
19	48.8059918767767	475.47	167.032420612252	460.352915546379	489.718936112991	70.0574266082361	
20	53.9920898636831	441.672	179.126686061958	494.748743441079	526.177430907166	70.096913890616	
21	43.7969018894235	398.11	193.114060877668	549.319129682653	582.275318680065	70.630789900897	
22	56.4651338574392	358.299	212.233840970847	606.455179752538	642.519329127087	70.7120976847731	
23	53.9920898636831	315.48	237.977190240546	687.163807815869	727.205089260788	70.8981098837562	
24	51.4390408701289	300	259.155893662821	705.560319854925	751.649613965151	69.8314595071099	
25	56.4651338574392	278.677	270.410190934958	767.251382147251	813.508669141483	70.585496152423	
26	46.2229468832983	251.19	303.451637460211	844.109180450949	896.996769670246	70.2268261637228	
27	59.2281868504632	226.071	347.316240684908	928.747544931473	991.564709567528	69.4961159312046	
28	56.4651338574392	199.055	414.111989168427	1031.26375724211	1111.3026934972	68.1216883746241	
29	53.9920898636831	189.288	446.107587402034	1076.69243970354	1165.45209650694	67.4942327806902	
30	59.2281868504632	175.833	487.801743016183	1151.29276593914	1250.37017454569	67.037668829618	
31	48.8059918767767	158.49	564.500444376858	1234.3262349509	1357.28479177722	65.4237288745231	
32	62.3262428426414	142.641	642.2636138131	1339.69583013642	1485.69427101041	64.3864736574351	
33	59.2281868504632	125.595	774.969677028813	1458.07024890682	1651.22586312755	62.0091920094643	
34	56.4651338574392	119.433	831.328047656981	1510.99415444645	1724.58970702962	61.1810185906659	
35	62.3262428426414	110.943	924.314291306021	1585.09817539672	1834.90957127553	59.7523640444821	
36	51.4390408701289	100	1058.2438688723	1670.64521649528	1977.60853694667	57.6484306484374	
37	65.6593058342262	90	1213.9881886491	1757.0045332684	2135.61051039398	55.3577770348609	
38	62.3262428426414	79.245	1416.75877363949	1847.98549029521	2328.57376843125	52.5244082483824	
39	59.2281868504632	75.357	1508.14360206029	1869.50712357804	2401.98959397089	51.1066547433453	
40	65.6593058342262	70	1645.25104765533	1918.87263679811	2527.63193643052	49.3900471351635	
41	53.9920898636831	63.096	1827.30282306408	1927.67090236508	2656.11571942997	46.5311154777482	
42	69.0273688257226	56.7864	2037.66337915745	1986.74080465023	2845.91129018836	44.2750497295152	
43	65.6593058342262	50	2292.56079615443	1954.11483985946	3012.3744474124	40.4433474990343	
44	62.3262428426414	47.547	2387.86176708294	1943.93189155988	3079.0834704048	39.1486547324398	
45	69.0273688257226	44.1672	2532.29719682911	1929.5171067227	3183.64026834128	37.3060642836494	
46	56.4651338574392	39.811	2717.94273297434	1861.82592527022	3294.48151849974	34.4116477618449	
47	72.6804358164995	35.8299	2888.59330066979	1803.57312760704	3405.41440698495	31.9797347458736	
48	69.0273688257226	31.548	3090.58190572624	1707.29895204857	3530.80249060586	28.9171342053299	
49	65.6593058342262	30	3152.77281156319	1667.15214987601	3566.42295475008	27.8694015449073	
50	72.6804358164995	27.8677	3262.27738261737	1597.66270778215	3632.4894836702	26.092769035649	
51	59.2281868504632	25.119	3391.99156786316	1500.27218871582	3708.96527844208	23.8597262990485	
52	76.2885008073901	22.6071	3496.69228790843	1402.53767400071	3767.48840519909	21.8559242901207	
53	72.6804358164995	19.9055	3614.03361072658	1275.72120228591	3832.58444465653	19.4425713387704	
54	69.0273688257226	18.9288	3654.7942111891	1241.63845250162	3859.94647279881	18.764097979171	
55	76.2885008073901	17.5833	3707.00231886887	1169.09699262547	3886.98520324751	17.5039876197773	
56	62.3262428426414	15.849	3767.3149119722	1058.5477168863	3913.2064748609	15.694407695972	
57	80.1215737977125	14.2641	3828.37630170047	983.641274468478	3952.72251293457	14.4095654945329	
58	76.2885008073901	12.5595	3888.44304834868	887.262696029143	3988.38619394061	12.853654718722	
59	72.6804358164995	11.9433	3901.81795043392	845.29975557305	3992.33202465679	12.2238023556387	
60	80.1215737977125	11.0943	3928.10549986022	788.077594430974	4006.37980137632	11.3443809219903	
61	65.6593058342262	10	3959.64729582638	731.875823949385	4026.71689208799	10.4719987895125	
62	84.0996457876688	9	3988.25426580119	667.068691887808	4043.65586176399	9.49530185506159	
63	80.1215737977125	7.9245	4016.5324794938	591.670317462782	4059.87769808342	8.37990136657242	
64	76.2885008073901	7.5357	4026.64947378546	563.337057650613	4065.86456061428	7.96411364085555	
65	84.0996457876688	7	4039.20104874555	534.565824362944	4074.42090765841	7.53896677078732	
66	69.0273688257226	6.3096	4051.49528051394	484.685716559779	4080.38408141486	6.82194839726861	
67	88.6027287762996	5.67864	4070.15660559954	441.740269578219	4094.05779879481	6.19415327914163	
68	84.0996457876688	5	4078.59595502742	398.788736538921	4098.0455610884	5.58440052580948	
69	80.1215737977125	4.7547	4084.87764217673	375.083283437293	4102.06202062687	5.24632465557748	
70	88.6027287762996	4.41672	4095.70293226149	355.014222527459	4111.0603994021	4.95399756892184	
71	72.6804358164995	3.9811	4094.72227399969	326.847960606223	4107.74635177753	4.56377396587929	
72	93.645823763567	3.58299	4121.77069394863	294.19832214931	4132.25680545743	4.08265889909077	
73	88.6027287762996	3.1548	4126.63633953999	259.379851158094	4134.77996826903	3.59659649951566	
74	84.0996457876688	3	4125.51644826344	250.414924926929	4133.10943473777	3.47353757194841	
75	93.645823763567	2.78677	4136.43499634282	238.208774955649	4143.28829547685	3.29590571077512	
76	76.2885008073901	2.5119	4132.81970069769	215.447929558089	4138.43164602556	2.98418362029532	
77	99.6789357483349	2.26071	4147.27994778532	193.705153072175	4151.80113343943	2.6741449743745	
78	93.645823763567	1.99055	4153.58668179448	162.615264352553	4156.76870265606	2.24201709746924	
79	88.6027287762996	1.89288	4149.09791003644	154.42744407694	4151.97077332595	2.13153766473189	
80	99.6789357483349	1.75833	4151.54242421435	142.78854591181	4153.99723987573	1.96985999643325	
81	80.1215737977125	1.5849	4143.3240022787	130.50303483302	4145.3787317879	1.80405923130298	
82	107.137071729505	1.42641	4155.03624222165	112.46955983927	4156.55814058529	1.55051787574684	
83	99.6789357483349	1.25595	4162.19074840056	99.5440387912174	4163.38093882004	1.37003962131072	
84	93.645823763567	1.19433	4161.97736751861	97.5637861499306	4163.12074051487	1.34286400411596	
85	107.137071729505	1.10943	4161.08023152369	85.2100414397067	4161.95259996308	1.17313130516731	
86	84.0996457876688	1	4149.83960710216	72.8337259428513	4150.47870929469	1.00549348680072	
87	128.898476674563	0.9	4175.53354071675	62.6031900294705	4176.00281478023	0.858963246890742	
88	107.137071729505	0.79245	4151.49998282161	53.3398852137738	4151.84263318379	0.736115178163983	
89	99.6789357483349	0.75357	4157.78917826579	48.3369825468962	4158.0701430815	0.66607040768829	
90	128.898476674563	0.7	4175.44658379813	46.0646237211058	4175.70067458266	0.632076450137856	
91	88.6027287762996	0.63096	4151.33255196259	36.6247416048089	4151.49410799075	0.505473520125923	
92	128.898476674563	0.5	4170.45790308997	31.6967083014352	4170.57835350959	0.435456413921785	
93	107.137071729505	0.47547	4145.96254144073	24.4559394035854	4146.03467038106	0.337968769930759	
94	93.645823763567	0.39811	4136.97662269349	13.7784369564669	4136.99956756553	0.190826160963725	
95	128.898476674563	0.3	4160.22384657006	4.64027658017213	4160.22643443082	0.0639071750384815	
96	99.6789357483349	0.25119	4144.67872652551	5.08042011664383	4144.68184023595	0.0702313747956764	
97	107.137071729505	0.15849	4146.32992873397	-9.79508864993942	4146.34149843892	-0.135352517829429	
98	128.898476674563	0.1	4150.10289855775	-22.7600828472389	4150.16530875442	-0.314219586050227	
10/14/2021
Index	Time (s)	Frequency (Hz)	Z' (Ω)	-Z'' (Ω)	Z (Ω)	-Phase (°)	OCP value (V)
1	210.895104467541	10000	102.32803173	42.4413365104415	110.780382390243	22.5266047035933	0.000389825730096726
2	213.068142462055	6309.6	112.327185542361	52.2057400816197	123.866201642489	24.9273541162882	
3	215.421188456114	3981.1	118.414503639929	67.208412145586	136.157869164517	29.577904683452	
4	217.649227450489	2511.9	122.276537276656	92.4187916966619	153.273561409137	37.0826397032732	
5	229.672449420133	2260.71	123.44659020789	102.298905916096	160.325065992767	39.6481894365254	
6	229.672449420133	1758.33	113.945031146462	129.248777781331	172.304140057446	48.6007718394116	
7	219.977273444611	1584.9	124.489870463315	138.92048609943	186.538546434979	48.1357449548609	
8	232.280500413548	1426.41	131.557257993148	154.45938095934	202.891627468997	49.5780598396496	
9	229.672449420133	1255.95	132.076840608097	167.453226392725	213.271833241874	51.7357883791209	
10	232.280500413548	1109.43	121.778287102893	201.447653909247	235.395642430472	58.8463756995732	
11	222.340315438645	1000	128.016739983305	218.086437878551	252.883332986791	59.5870657841983	
12	235.013550406648	900	132.143160024704	235.479231755148	270.022745948021	60.7003001096704	
13	232.280500413548	792.45	142.971006871481	282.06605986607	316.230882322101	63.120887738719	
14	229.672449420133	753.57	133.779622653113	319.370652802621	346.257998187452	67.27191407732	
15	235.013550406648	700	135.021214041023	317.016308237458	344.572297101231	66.930238013823	
16	224.823362432376	630.96	142.79481329982	346.22775173813	374.518377091126	67.5872657238033	
17	237.501595400366	567.864	146.869973039905	385.851429842753	412.858468355003	69.1612402427615	
18	235.013550406648	500	161.24038545285	434.33907736524	463.302164928539	69.6334834551354	
19	232.280500413548	475.47	151.411819724543	463.143047070668	487.264836821005	71.8962738793091	
20	237.501595400366	441.672	177.175968352331	493.716920082839	524.545251563362	70.2588944831631	
21	227.26140742622	398.11	173.925890663535	542.463260277067	569.663588614832	72.2229840590931	
22	240.094643393819	358.299	211.913349882202	601.975823908523	638.186618810393	70.6064190130649	
23	237.501595400366	315.48	235.363064636368	676.089369120225	715.88588981234	70.8057566665316	
24	235.013550406648	300	235.111573143139	712.184144822647	749.98913856309	71.7305223714739	
25	240.094643393819	278.677	265.685758312919	761.984282048449	806.975196805454	70.7775541064925	
26	229.672449420133	251.19	354.814853213227	752.399819227842	831.864813557355	64.7524880270902	
27	242.852695386856	226.071	341.668488086971	918.784663440637	980.256401930312	69.6013403075764	
28	240.094643393819	199.055	400.595259259613	1027.80113974878	1103.11003286625	68.7061777611727	
29	237.501595400366	189.288	432.417778840707	1073.21529602429	1157.05497150223	68.0546063370432	
30	242.852695386856	175.833	478.501260688696	1144.47270797546	1240.47621330736	67.3103136434303	
31	232.280500413548	158.49	525.676796340952	1304.59889068384	1406.52563424375	68.053457764745	
32	245.940751379059	142.641	622.422245456952	1337.12858426535	1474.89738710838	65.0384133821611	
33	242.852695386856	125.595	760.428488494971	1461.56280081773	1647.54887844	62.5127382139228	
34	240.094643393819	119.433	803.15966212597	1511.03718827252	1711.22728683504	62.008072571084	
35	245.940751379059	110.943	887.609310306569	1588.43422443353	1819.60808227889	60.8037538814978	
36	235.013550406648	100	1036.93193791274	1684.62734699448	1978.18026026576	58.3866223429228	
37	249.283814370619	90	1185.2638067619	1773.05127829063	2132.73559708365	56.2377408353287	
38	245.940751379059	79.245	1405.68225354786	1880.98901776699	2348.20405478302	53.2288633454284	
39	242.852695386856	75.357	1479.62517179393	1917.37548672204	2421.90408688883	52.342883652646	
40	249.283814370619	70	1617.17730499377	1944.95545882925	2529.4493813114	50.2574028564561	
41	237.501595400366	63.096	1880.82595398366	2000.30855490665	2745.67670784659	46.763321333728	
42	252.631877362166	56.7864	1963.31870685398	1978.06406396857	2786.99798813107	45.2143518753848	
43	249.283814370619	50	2275.91454925743	2014.64262356286	3039.5019223876	41.5152972736917	
44	245.940751379059	47.547	2361.78853102483	1981.20204624906	3082.72713896996	39.9918298201741	
45	252.631877362166	44.1672	2526.28221681509	1989.21176985187	3215.44169661237	38.2171355783035	
46	240.094643393819	39.811	2720.8658952564	1939.09275630402	3341.13632429449	35.4765173531495	
47	256.164942353246	35.8299	2892.72973782907	1871.43586573754	3445.3094978085	32.9006293467307	
48	252.631877362166	31.548	3116.02367548121	1769.71855524698	3583.50489199399	29.59403235492	
49	249.283814370619	30	3189.7755102253	1737.03862086261	3632.0752987791	28.5711440221411	
50	256.164942353246	27.8677	3284.53423347907	1663.67649614803	3681.84527305689	26.8630455949873	
51	242.852695386856	25.119	3433.35886562876	1566.16128239595	3773.70034086807	24.5205787704781	
52	259.778007344124	22.6071	3535.99581673794	1457.54141236985	3824.61676312298	22.401511186788	
53	256.164942353246	19.9055	3657.73137640165	1339.69760065371	3895.35473135765	20.1159952989844	
54	252.631877362166	18.9288	3694.00856699582	1293.20700655754	3913.83234884276	19.2942468296293	
55	259.778007344124	17.5833	3759.45205095851	1219.82210174364	3952.39746019532	17.9765908994479	
56	245.940751379059	15.849	3834.50338002274	1135.00363970708	3998.95604296348	16.4886251031487	
57	263.56607833456	14.2641	3889.80904324728	1027.4992996905	4023.22870388855	14.7967976490183	
58	259.778007344124	12.5595	3948.21132129152	930.083329498132	4056.28248984028	13.2555405127955	
59	256.164942353246	11.9433	3970.82631550717	882.955138291531	4067.80916515999	12.5363603201984	
60	263.56607833456	11.0943	3999.03980127399	833.698567015202	4085.01807007224	11.7760507329502	
61	249.283814370619	10	4037.44002455248	770.457732292862	4110.2952532766	10.8037635227828	
62	267.609154324352	9	4058.24108325008	695.511590725117	4117.4090229915	9.72501540419822	
63	263.56607833456	7.9245	4088.7613661321	618.163900486083	4135.22624738219	8.597217337043	
64	259.778007344124	7.5357	4093.94177138666	593.736573766573	4136.77197178338	8.25196376739782	
65	267.609154324352	7	4109.93410666352	554.910681895629	4147.22608812179	7.68940037266856	
66	252.631877362166	6.3096	4126.32948436539	510.277375807033	4157.7611780625	7.04962034943132	
67	272.062234313109	5.67864	4140.39502216647	458.789333760512	4165.73626053706	6.32304202510299	
68	267.609154324352	5	4150.66362829786	409.538788101664	4170.81893328332	5.63503602410828	
69	263.56607833456	4.7547	4160.76927137232	396.593140794727	4179.62762084394	5.44482722875738	
70	272.062234313109	4.41672	4173.17829349483	370.053199432777	4189.5532506112	5.06740264823312	
71	256.164942353246	3.9811	4166.60347997633	331.802023721226	4179.79391146219	4.55306629483544	
72	277.100328300389	3.58299	4188.19948976085	309.331774789075	4199.60725698573	4.22407844934339	
73	272.062234313109	3.1548	4199.35784494657	269.709586192645	4208.01016762062	3.67485355156622	
74	267.609154324352	3	4193.25729228046	263.269726771441	4201.51373534558	3.59254632551976	
75	277.100328300389	2.78677	4207.11951356267	237.97689610415	4213.84475324841	3.23750185362806	
76	259.778007344124	2.5119	4207.7501760819	212.858584820749	4213.13070310537	2.89596829310927	
77	283.118441285195	2.26071	4221.41982780557	204.843102275555	4226.38687996495	2.77808102787559	
78	277.100328300389	1.99055	4218.43553554425	172.00163051247	4221.94065903838	2.33487309534522	
79	272.062234313109	1.89288	4216.78479546745	163.487770226189	4219.95287441685	2.22028641386509	
80	283.118441285195	1.75833	4214.7335922916	147.747980969808	4217.32245860711	2.00768815773073	
81	263.56607833456	1.5849	4222.54885986003	133.196332274096	4224.64911404918	1.80674238133121	
82	290.646579266188	1.42641	4237.06221609539	115.047304373286	4238.62384569647	1.55534788426503	
83	283.118441285195	1.25595	4217.70708150588	111.420379998667	4219.17853692681	1.51324711961634	
84	277.100328300389	1.19433	4224.10185753402	95.7680665001753	4225.18733612884	1.29877695960217	
85	290.646579266188	1.10943	4234.0658783436	92.2399552949404	4235.07049191703	1.248002383341	
86	267.609154324352	1	4219.69962109573	72.7564490363995	4220.32681117847	0.987801221031396	
87	312.312982211486	0.9	4250.51469260386	69.3616812117751	4251.08059143341	0.93489357850985	
88	290.646579266188	0.79245	4226.52055263681	52.9747049893589	4226.85252891914	0.718100870717059	
89	283.118441285195	0.75357	4227.55032601894	32.2204163333414	4227.67310872678	0.436673246626674	
90	312.312982211486	0.7	4247.7067166523	43.5089111041224	4247.92953990983	0.586855441587318	
91	272.062234313109	0.63096	4215.59956998939	33.2580619165071	4215.7307590947	0.452013294477424	
92	312.312982211486	0.5	4237.35798768325	28.8062501434683	4237.45590134345	0.389500046188931	
93	290.646579266188	0.47547	4228.66217337971	25.7743031904234	4228.74072168977	0.349221679335774	
94	277.100328300389	0.39811	4200.73376226249	9.67624189184852	4200.74490668847	0.131978571548845	
95	312.312982211486	0.3	4233.22100672572	10.4731456530683	4233.23396218113	0.141751592673534	
96	283.118441285195	0.25119	4207.26268572376	-20.8342938830143	4207.31427094353	-0.28372541494209	
97	290.646579266188	0.15849	4205.44791957173	-21.9701260414698	4205.50530741176	-0.299322229162836	
98	312.312982211486	0.1	4232.13129200576	1.29787398117367	4232.13149101623	0.0175709811437924	
10/14/2021
Index	Time (s)	Frequency (Hz)	Z' (Ω)	-Z'' (Ω)	Z (Ω)	-Phase (°)	OCP value (V)
1	392.945583007908	10000	102.576153399634	42.40657616344	110.996328534645	22.4609618520772	0.000323867797851559
2	395.098619002472	6309.6	111.38375900773	52.0059026371681	122.926627220463	25.0282193611168	
3	397.496665996417	3981.1	118.755041916728	66.3088270852788	136.013310120992	29.1775240579633	
4	399.874705990413	2511.9	122.103442470873	91.8789711397954	152.810326879256	36.9603016997211	
5	411.927931959982	2260.71	122.992038420527	101.532162239121	159.486116899834	39.5402921356751	
6	411.927931959982	1758.33	119.364421868472	124.666136819469	172.596381414806	46.2445904860495	
7	402.167752984624	1584.9	123.536285893423	136.511780885917	184.110510979102	47.8564913275312	
8	414.565980953322	1426.41	122.418960634426	155.331358864428	197.77318566854	51.7578283842732	
9	411.927931959982	1255.95	127.100229625847	176.943886883238	217.861441003889	54.3100061424886	
10	414.565980953322	1109.43	128.934811172831	194.467506946048	233.327659719085	56.4550377212603	
