10/22/2021
Index	Time (s)	Frequency (Hz)	Z' (Ω)	-Z'' (Ω)	Z (Ω)	-Phase (°)	OCP value (V)
1	36.9347869067486	10000	84.4572379889915	-5.58444715455903	84.6416629016185	-3.78298150544352	0.000360488891601568
2	39.3778279005805	6240.1	81.4002156612891	-2.82951994474172	81.4493787135424	-1.99083381496051	
3	41.8408758943619	3893.8	81.1091893003513	1.10768118328826	81.1167525642147	0.782420738083551	
4	44.2889188881812	2429.8	82.9183672579561	4.3768435649567	83.033802684915	3.02155184077442	
5	58.7801918515943	2069.01	83.728411534537	5.49515566703576	83.9085432712411	3.75497787294647	
6	58.7801918515943	1609.23	84.1728672079479	5.71998586581706	84.366994804319	3.88757060668401	
7	46.796966881849	1516.2	85.7754025704345	5.7665525238099	85.9690224099935	3.84612245799945	
8	61.2732358453	1291.05	86.1307880388077	6.45997180652404	86.3727033496527	4.28926095682328	
9	58.7801918515943	1149.45	86.8178162893026	5.72906253575147	87.0066398775499	3.77544483662047	
10	61.2732358453	1004.15	88.4620424414191	6.73168725278578	88.7178029832612	4.35164442686396	
11	49.2800118755799	946.12	88.4375996674014	5.81430569233912	88.6285235441476	3.76148201065824	
12	64.0512848382861	805.626	89.0906850251141	6.3587651738333	89.3173222436726	4.08251016341539	
13	61.2732358453	717.25	90.1179364981571	5.72464701064265	90.2995795232864	3.63477018449115	
14	58.7801918515943	689.67	90.5859213226894	5.10304740262005	90.7295444421158	3.22427999946456	
15	64.0512848382861	626.598	90.1702697149696	6.12944535241312	90.3783582546097	3.88877530182055	
16	51.7680598692982	590.38	90.6437035094089	5.04412398981779	90.7839422625294	3.1850998708365	
17	66.9293388310197	502.713	90.8433479016906	5.19293128715987	90.9916501297825	3.27167157945512	
18	64.0512848382861	447.57	90.682078595875	5.04547369416018	90.8223330644336	3.18460491949221	
19	61.2732358453	430.35	92.3878810922278	4.37197450889244	92.491268419338	2.70932671544531	
20	66.9293388310197	390.999	92.5828379467633	3.64622031301652	92.6546102730333	2.25533294147409	
21	54.2961058629155	368.4	92.3402102562129	3.94754095824036	92.4245503628695	2.4479021909086	
22	70.202401822756	313.695	92.8204189773703	4.38044586761626	92.92372401671	2.70193765276592	
23	66.9293388310197	279.285	92.4809690579356	2.87739938533742	92.5257211002302	1.78209284670365	
24	64.0512848382861	268.542	90.7846564493328	1.78036642265522	90.8021120416387	1.12347628019108	
25	70.202401822756	243.985	93.5085833993693	2.66234116709218	93.5464763090882	1.63086327202191	
26	58.7801918515943	229.89	93.5702499233251	3.04448880530181	93.6197659834671	1.86357141011025	
27	73.8954688134319	195.75	93.3063836457722	2.50637168345127	93.3400403260446	1.53869423789452	
28	70.202401822756	174.275	93.8762933269149	3.17294486209665	93.9298995416203	1.93581534747888	
29	66.9293388310197	167.571	93.5066530383152	2.18675842672465	93.5322194478711	1.33968216052174	
30	73.8954688134319	152.25	93.6214457944617	2.50818635778709	93.6550378327334	1.53462835566766	
31	61.2732358453	143.45	93.3120835004487	2.69452073448135	93.3509794762929	1.6540384739946	
32	77.2935318048526	122.148	93.6829579245114	2.22794876016822	93.7094464884075	1.36233960124877	
33	73.8954688134319	108.75	93.8003894393106	1.82748038281146	93.8181898328671	1.11613255256002	
34	70.202401822756	104.565	94.9900052398909	1.63521264869226	95.0040789433851	0.986225129253164	
35	77.2935318048526	95.004	93.392621550767	1.04786034966115	93.3984998350465	0.642828688282996	
36	64.0512848382861	89.514	94.2482374196479	1.98443631063309	94.2691266756051	1.20620852636134	
37	80.9765997955537	76.2219	93.2766061154209	1.66047901387481	93.291384591327	1.01985262509215	
38	77.2935318048526	67.86	94.708973842558	1.37501011097904	94.7189546981787	0.831776952134782	
39	73.8954688134319	65.25	93.6136053453606	1.18173073396501	93.6210638333304	0.723234482634658	
40	80.9765997955537	59.2837	93.1010369136027	-2.75313793505909	93.1417352365602	-1.6938289052729	
41	66.9293388310197	55.857	93.6978163106506	3.9254157662696	93.7800067728858	2.39897065475933	
42	85.0096717853712	47.5632	93.3824037268396	0.623922805949482	93.3844880345245	0.382808860866287	
43	80.9765997955537	42.3455	94.1005116553757	0.540031947989018	94.1020612330482	0.328810239178063	
44	77.2935318048526	40.716	94.029965656386	-0.644958523626422	94.0321775395972	-0.392989847532681	
45	85.0096717853712	36.9936	94.0787429570922	0.916062834315563	94.0832027914815	0.557882405942357	
46	70.202401822756	34.855	94.3944505850788	1.22735143699912	94.402429485733	0.744938864158738	
47	89.3827537743302	29.6793	93.7112777278674	0.251013867147523	93.7116139085813	0.153471397887633	
48	85.0096717853712	26.424	94.1171729391511	0.445983578131541	94.1182296019748	0.271499713659089	
49	80.9765997955537	25.4073	93.2601257153234	0.961144258623604	93.2650783880215	0.590472718017074	
50	89.3827537743302	23.0839	94.495679995071	0.79479326383356	94.4990223973936	0.481897434993797	
51	73.8954688134319	21.75	94.5192330857644	1.35710961067798	94.5289752912643	0.82259777081853	
52	94.270845761989	18.5202	93.6059154184233	0.75272761613313	93.6089418815591	0.460731415792432	
53	139.634685647456	18	94.1863697425663	-0.396107449053566	94.1872026678498	-0.240960038330328	
54	89.3827537743302	16.4885	94.2684169526225	0.548186959937638	94.2700108395907	0.333180997080769	
55	85.0096717853712	15.8544	93.3744713465908	0.32019410279614	93.3750203401251	0.196474459687267	
56	94.270845761989	14.4046	93.366588550711	0.531727068517067	93.3681026436393	0.326298604112005	
57	139.634685647456	14	94.764543256381	1.92775638215101	94.7841490084678	1.1653838955471	
58	77.2935318048526	13.572	93.8806711377958	0.393278865007943	93.881494883436	0.240018387749008	
59	145.42779063283	13.0347	93.9262091567484	0.116855034490617	93.9262818472888	0.0712825195108013	
60	99.7639457481202	11.5569	94.0437500834109	-0.315908242501146	94.0442806754814	-0.192465112379736	
61	94.270845761989	10.289	93.2748600864883	-0.0508118176107137	93.274873926448	-0.0312120801660844	
62	145.42779063283	10.1381	93.4424520204322	0.5231677969507	93.443916571035	0.320785605364256	
63	139.634685647456	10	95.5701392136681	-0.754191720947123	95.5731150191928	-0.452140238811286	
64	89.3827537743302	9.8931	93.768176077123	-0.606999971142975	93.7701407367789	-0.370893966155945	
65	151.965913616323	9.4392	93.1893880921635	-0.330649125220871	93.1899746852411	-0.203292673797568	
66	99.7639457481202	8.9887	93.8693838386375	0.883760361448583	93.8735439547369	0.539411688171355	
67	80.9765997955537	8.4691	93.9795111931569	-0.502092184052739	93.980852415085	-0.306103841204378	
68	151.965913616323	7.3416	92.7811716371404	0.344583490718822	92.7818115157415	0.212791976924873	
69	145.42779063283	7.2415	93.9432379398662	-0.355475111139951	93.9439104848257	-0.216802473819877	
70	119.423313698485	7.21143	94.5193079677018	0.743918420359023	94.522235443886	0.450939671789787	
71	159.564052597139	6.8355	94.1606602664931	-1.09091751670826	94.1669795780357	-0.663782230312508	
72	99.7639457481202	6.4205	93.2895311818849	0.694537410099855	93.2921165498452	0.426557263223627	
73	94.270845761989	6.1734	94.5963009953099	0.257772149693676	94.5966522054371	0.156128934662645	
74	139.634685647456	6	94.3160432485067	2.54814029170436	94.3504585733445	1.54758588902006	
75	119.423313698485	5.60889	93.3972429031153	0.870361070708689	93.4012982259718	0.533919107030538	
76	159.564052597139	5.3165	93.7841481606125	-0.770428146620936	93.7873126053882	-0.470668968573254	
77	85.0096717853712	5.2848	93.2443367909737	0.660201300573591	93.2466739854339	0.405666632130531	
78	151.965913616323	5.244	93.7671600226168	-0.471593772546393	93.76834593504	-0.288161708023434	
79	168.522221574522	4.95	92.8733958303725	1.01975102395903	92.8789941010125	0.629083080873476	
80	128.011470676802	4.5	93.3805548807807	-0.472802744491443	93.381751816282	-0.290096480490273	
81	145.42779063283	4.3449	93.1030282005166	0.115739299931136	93.1031001400691	0.0712261472267709	
82	119.423313698485	4.00635	94.079307451751	0.627985551544188	94.08140335079	0.382447408392714	
83	99.7639457481202	3.8523	93.7681500793011	-0.545562403521426	93.769737163066	-0.333354880612181	
84	168.522221574522	3.85	93.6775192515421	0.177095198833616	93.6776866485957	0.108316226330384	
85	159.564052597139	3.7975	93.4056279650711	-0.676167393016742	93.4080753355547	-0.414759388653154	
86	128.011470676802	3.5	92.7860260446067	-1.32647552534574	92.7955072536908	-0.819048680487153	
87	89.3827537743302	3.2977	93.8525821747608	-1.13921383266614	93.8594959981501	-0.695441059077673	
88	151.965913616323	3.1464	92.5377723504503	-0.00952681913354369	92.5377728408462	-0.00589863482493301	
89	168.522221574522	2.75	93.0902047987278	-0.660686701963986	93.0925493065221	-0.406637025985148	
90	128.011470676802	2.5	94.0311696536494	-1.18054078852947	94.0385800774702	-0.719298201308121	
91	119.423313698485	2.40381	92.0183737733879	0.519746606194483	92.0198416018718	0.323619827772248	
92	159.564052597139	2.2785	93.3191433283856	0.314218769571434	93.3196723364315	0.192922273606894	
93	94.270845761989	2.0578	93.9962400523797	0.529156642237129	93.9977294977736	0.322546114698055	
94	139.634685647456	2	95.2820454120469	1.22630048861578	95.2899364612641	0.737368336774974	
95	168.522221574522	1.65	92.5252205446832	-0.162385040205779	92.5253630403229	-0.10055601978091	
96	128.011470676802	1.5	94.4714457008403	-0.321636985057649	94.471993221044	-0.195068154614486	
97	145.42779063283	1.4483	93.546531274429	-0.27376914066735	93.5469318739001	-0.167678815303048	
98	99.7639457481202	1.2841	94.2298223429266	0.323993131230535	94.2303793387705	0.197000964203419	
99	151.965913616323	1.0488	93.232461323433	-0.0487269476457767	93.2324740567409	-0.0299450229547545	
100	119.423313698485	0.80127	94.5621845607726	0.895007279352417	94.5664199752519	0.542273941860698	
101	159.564052597139	0.7595	93.2612195447507	-0.056434269003127	93.2612366195136	-0.0346708423383775	
102	168.522221574522	0.55	93.9369269988857	-1.63606917176942	93.9511733632358	-0.997801236243959	
103	128.011470676802	0.5	92.5430400147837	-1.24372198678917	92.551397069727	-0.769973959385651	
10/22/2021
Index	Time (s)	Frequency (Hz)	Z' (Ω)	-Z'' (Ω)	Z (Ω)	-Phase (°)	OCP value (V)
1	245.493756380188	10000	83.5499075916402	-4.76198646114586	83.6855039635166	-3.26208449013978	0.000348135141225964
2	247.7067973746	6240.1	80.4864804593905	-2.22218868382467	80.5171513361369	-1.58150406302031	
3	250.189842368331	3893.8	80.4966886162543	1.75826084341659	80.5158888628555	1.25129257760746	
4	252.672887362062	2429.8	82.2549644851212	4.64369967470899	82.3859401179439	3.23120033303947	
5	267.039158325791	2069.01	81.8096793830879	5.12135272651258	81.9698230723539	3.58208822238117	
6	267.039158325791	1609.23	84.1084132695786	6.22958052188683	84.3387980481398	4.2359393094811	
7	255.205936355667	1516.2	85.177878503236	5.96850605572902	85.3867322881565	4.00822572453719	
8	269.562201319421	1291.05	85.7688799836707	6.4395574096448	86.010282369525	4.2937311873991	
9	267.039158325791	1149.45	86.8649061937916	6.59586842350264	87.114966614907	4.34227838093393	
10	269.562201319421	1004.15	87.3095758817189	6.74930202320308	87.5700583444253	4.4203511114721	
11	257.543979349764	946.12	88.0905317598619	5.89946184162806	88.2878555394573	3.8314025113404	
12	272.405252312243	805.626	88.6899759114072	7.04923247110226	88.9696774502281	4.54441404144258	
13	269.562201319421	717.25	89.0115037378791	5.24164172703462	89.1657030795645	3.37009837410937	
14	267.039158325791	689.67	89.6345834449228	6.1832694622942	89.8476008059657	3.9461876229555	
15	272.405252312243	626.598	88.8303581993112	6.06463980211701	89.0371405299348	3.90564556236274	
16	259.997024343571	590.38	90.245626928957	5.1504855856884	90.3924813331777	3.2664331830785	
17	275.303305304926	502.713	90.8356110541408	5.26750923858576	90.9882129133094	3.31883523452255	
18	272.405252312243	447.57	90.9466117090494	5.2386468076347	91.0973633083403	3.29667093849865	
19	269.562201319421	430.35	90.6451507655318	5.48193031922535	90.810764325221	3.46085126673176	
20	275.303305304926	390.999	91.3983668110144	4.97355981096136	91.5335881134021	3.1147516406058	
21	262.545070337137	368.4	92.0618366885986	4.15572617484142	92.1555849339499	2.58461105600781	
22	278.531366296776	313.695	91.4738078965826	4.22301637341194	91.5712367416264	2.6432630274422	
23	275.303305304926	279.285	92.4096015182889	3.51583777308904	92.4764595343897	2.17883801782332	
24	272.405252312243	268.542	92.9408740709115	6.47474190294962	93.1661330944611	3.98508176321232	
25	278.531366296776	243.985	92.788658021021	3.28816149635543	92.8469012049842	2.02954732720059	
26	267.039158325791	229.89	92.101972665673	3.44719656196972	92.1664609988104	2.14346835492409	
27	282.279437287313	195.75	92.0968001969438	2.67337115449045	92.1355931214721	1.66270580179373	
28	278.531366296776	174.275	92.4226504227715	2.21027879930772	92.4490759474669	1.36996192769336	
29	275.303305304926	167.571	93.7758325071755	2.32651710324586	93.804687751975	1.42117930295822	
30	282.279437287313	152.25	92.5998517086636	2.13849327735968	92.6245415101409	1.32294881342086	
31	269.562201319421	143.45	94.418120295259	1.94547487079981	94.4381613150262	1.18040613369753	
32	286.227510277345	122.148	92.3300084331277	2.07338320079163	92.3532856760319	1.28643055345105	
33	282.279437287313	108.75	92.5017970346626	2.14899398127111	92.5267562912126	1.33085134305139	
34	278.531366296776	104.565	93.9120926133126	1.19894917262692	93.9197456242826	0.731439303844734	
35	286.227510277345	95.004	92.7981492718474	2.46264708426715	92.8308199842149	1.52013996489887	
36	272.405252312243	89.514	93.7479144537166	1.69458639070726	93.7632288664215	1.03556517620808	
37	290.15058026744	76.2219	93.1174912684928	1.09346125617166	93.1239112025294	0.672782682529476	
38	286.227510277345	67.86	92.8277261487218	1.63246272455479	92.8420792339829	1.00749622775876	
39	282.279437287313	65.25	93.0588282645932	1.47091425166774	93.0704523826698	0.90555794334932	
40	290.15058026744	59.2837	90.7141634611005	-2.87393573193072	90.7596769443266	-1.81459348453828	
41	275.303305304926	55.857	96.1807638472475	0.634473808825549	96.1828565351127	0.377956492618073	
42	294.028652257649	47.5632	92.6310343099333	1.53638121824623	92.6437746671401	0.950222454483648	
43	290.15058026744	42.3455	93.1248405161049	0.290027791280849	93.1252921459561	0.17844126833978	
44	286.227510277345	40.716	93.3008324766678	0.448675820407077	93.3019112924867	0.275528438853333	
45	294.028652257649	36.9936	93.4899952673599	0.591935195207891	93.4918691778398	0.362765396882585	
46	278.531366296776	34.855	94.0120981101794	0.506626338981288	94.0134631918501	0.308761006382199	
47	298.181731247163	29.6793	93.1073076249625	0.896471892157228	93.1116233078493	0.551648093222	
48	294.028652257649	26.424	92.8411156809382	0.215239836720216	92.8413651831373	0.13283244220028	
49	290.15058026744	25.4073	92.3944096872205	0.547340093247524	92.3960308813513	0.339413505329681	
50	298.181731247163	23.0839	93.1287382847932	1.32166162952346	93.1381161715248	0.813073938838431	
51	282.279437287313	21.75	92.0100089392545	1.3325578373007	92.0196579834519	0.829742366647942	
52	302.964818235087	18.5202	93.0451763818029	0.662275657410972	93.047533320165	0.40781221260275	
53	335.482420152988	18	91.8745097222806	1.27982350864915	91.8834233413336	0.798085815629527	
54	298.181731247163	16.4885	93.2940795347494	0.0808970243858949	93.2941146083969	0.0496822192137195	
55	294.028652257649	15.8544	92.337337373955	0.18563362302762	92.3375239713172	0.115186436047441	
56	302.964818235087	14.4046	94.9089784484707	-0.414125876109269	94.9098819426805	-0.250002841586469	
57	335.482420152988	14	91.7302623135661	-0.75738955013336	91.7333890306376	-0.473063496016884	
58	286.227510277345	13.572	92.7113761698543	0.273232002582268	92.7117787933953	0.168857327964155	
59	341.325530138236	13.0347	91.531116802766	-0.859232842209737	91.5351496652445	-0.537838619039189	
60	308.532922221029	11.5569	92.4468715369988	-0.438696339555505	92.4479124234652	-0.271888703818369	
61	302.964818235087	10.289	91.6272029882657	0.843136048720091	91.6310820947209	0.527209956989992	
62	341.325530138236	10.1381	91.4838155307252	-0.543681422667464	91.4854310453261	-0.340500491979629	
63	335.482420152988	10	91.956312360499	-0.220345384872072	91.9565763555293	-0.137291677987084	
64	298.181731247163	9.8931	93.4392484221737	0.672259202786986	93.4416667131769	0.412213830278325	
65	347.713647122107	9.4392	91.7104946756308	0.361590162739587	91.7112074999272	0.225900895638666	
66	308.532922221029	8.9887	92.1447804974695	0.516551214720246	92.1462283443238	0.321189049716144	
67	290.15058026744	8.4691	93.8656207298334	0.387312401353778	93.866419799059	0.236414992377871	
68	347.713647122107	7.3416	92.3836352142774	0.54141344047582	92.385221674888	0.335777542280937	
69	341.325530138236	7.2415	92.2185855929289	0.50614968931383	92.2199746056588	0.314469687554075	
70	315.376049203752	7.21143	91.7768326877416	-0.405536831918509	91.7777286617824	-0.253172799730085	
71	355.16678410329	6.8355	91.1163853085441	-0.118506407224271	91.116462373512	-0.0745191232913212	
72	308.532922221029	6.4205	92.8835875852874	0.270617907438831	92.8839818093818	0.166931752828022	
73	302.964818235087	6.1734	92.6989654360473	0.666168617946677	92.7013590706254	0.411741307301696	
74	335.482420152988	6	91.5804852163874	0.230527318908824	91.5807753587712	0.144225208105263	
75	315.376049203752	5.60889	92.225659570281	-0.1613368919145	92.225800689211	-0.100231471369527	
76	355.16678410329	5.3165	91.5346209576162	-0.268740784261832	91.5350154610988	-0.168216881423963	
77	294.028652257649	5.2848	93.3190295650681	0.054360993467991	93.3190453984805	0.0333764202013478	
78	347.713647122107	5.244	91.9374732516959	-0.431733285018875	91.938486943911	-0.269055831159428	
79	364.284953080269	4.95	92.1392046569761	-0.93846187976538	92.1439837727884	-0.5835523098462	
80	323.799206182486	4.5	92.635448732346	0.541088517308457	92.6370289820796	0.334663848892612	
81	341.325530138236	4.3449	91.2459498914227	-0.526534386571967	91.2474690610554	-0.330621395344248	
82	315.376049203752	4.00635	92.2650815308762	-0.38346509580918	92.2658783916294	-0.23812697841094	
83	308.532922221029	3.8523	91.9378712910701	0.324741967924507	91.9384448143382	0.202378699357686	
84	364.284953080269	3.85	90.8467252071675	-0.915520909363176	90.8513382367155	-0.577386893994733	
85	355.16678410329	3.7975	91.4622927866407	-0.519819232533762	91.4637699519526	-0.325632854272077	
86	323.799206182486	3.5	90.6112576308133	-0.223912681871482	90.6115342896627	-0.141585337983878	
87	298.181731247163	3.2977	93.8297240580415	0.408960043313754	93.8306152869373	0.249724022237789	
88	347.713647122107	3.1464	91.5164794900951	0.0334730919180889	91.5164856116584	0.0209565186436514	
89	364.284953080269	2.75	92.4111903485739	-0.0132460404808176	92.4111912979048	-0.00821266566040189	
90	323.799206182486	2.5	90.3702550444251	0.873499327582968	90.3744764735582	0.553791358987824	
91	315.376049203752	2.40381	91.7153959826752	-0.135297701972634	91.7154957775788	-0.0845221415067834	
92	355.16678410329	2.2785	91.7394363161154	-0.373143905323166	91.7401951816797	-0.233045393393602	
93	302.964818235087	2.0578	91.3218116279226	-1.00501715286235	91.3273416808095	-0.630527533438484	
94	335.482420152988	2	92.2464875915189	-1.10453860437952	92.2531001023858	-0.686013937404197	
95	364.284953080269	1.65	90.7994732278504	-0.933656521671436	90.8042733188014	-0.589129992241584	
96	323.799206182486	1.5	92.3231684812579	-1.76595274777704	92.3400564626539	-1.09581704767458	
97	341.325530138236	1.4483	91.3749345769312	-0.930515090877303	91.3796723963968	-0.583450427355507	
98	308.532922221029	1.2841	91.1486674033956	-0.22654054085165	91.1489489244472	-0.142402412706531	
99	347.713647122107	1.0488	91.3985793589725	-0.027135692710984	91.398583387185	-0.0170107744751139	
100	315.376049203752	0.80127	92.5103154786853	-1.16831592535353	92.5176925353595	-0.723551885735887	
101	355.16678410329	0.7595	90.3790895845579	-0.319212169308463	90.3796532995263	-0.202363556708002	
