10/22/2021
Index	Time (s)	Frequency (Hz)	Z' (Ω)	-Z'' (Ω)	Z (Ω)	-Phase (°)	OCP value (V)
1	36.1398119087557	10000	87.285473126375	31.584503956708	92.8242140235318	19.8928053205998	0.00356502532958985
2	38.4528529029159	6240.1	90.5913562349179	46.451925545028	101.806557801168	27.1470875440364	
3	40.9308998966594	3893.8	93.8544546253484	69.1586777963871	116.582937720603	36.3854453440263	
4	43.3889458904534	2429.8	96.4358399956993	105.258209491984	142.755601995629	47.5045980592795	
5	57.8552158539296	2069.01	96.7625845749319	123.341601205185	156.767816727413	51.885499957653	
6	57.8552158539296	1609.23	98.9401155849172	156.480802212535	185.136133515409	57.6955375633742	
7	45.9219928840581	1516.2	100.064354063468	166.627135271581	194.364289834715	59.0139807075127	
8	60.4132588474712	1291.05	102.379097181651	194.475598113552	219.777700873755	62.2360335813141	
9	57.8552158539296	1149.45	104.905127833965	218.926913597884	242.763422581236	64.3972487574557	
10	60.4132588474712	1004.15	107.907323944733	250.023388007473	272.315414752174	66.6555073787058	
11	48.4250368777385	946.12	111.772557095784	264.961688010049	287.572252891104	67.1278318469958	
12	62.961308841038	805.626	118.906260337384	310.863857799888	332.82884014708	69.0680132454181	
13	60.4132588474712	717.25	125.582795321564	348.014558599884	369.979960914439	70.1577677408806	
14	57.8552158539296	689.67	129.134815258673	362.079882480151	384.418576305479	70.3713609194704	
15	62.961308841038	626.598	136.87472104056	397.639712134307	420.537786561667	71.0056181529224	
16	50.8730848715578	590.38	143.024253598109	421.297360526858	444.912803933753	71.2484061337929	
17	65.4893548346553	502.713	162.179218024831	491.274990676782	517.352119183461	71.7309606756347	
18	62.961308841038	447.57	180.321479862258	548.627614964515	577.50159826737	71.8054760976645	
19	60.4132588474712	430.35	186.859131837611	568.875628909801	598.778603758207	71.816149258874	
20	65.4893548346553	390.999	206.295771818639	621.132987120147	654.49532707197	71.6272185373062	
21	53.4361298650867	368.4	220.807663628378	656.341771441581	692.48866074189	71.4059398127668	
22	68.3224088275025	313.695	265.403678397875	757.649869688693	802.790406984548	70.6947144471215	
23	65.4893548346553	279.285	306.457864864676	839.79683979215	893.965969745101	69.952010793485	
24	62.961308841038	268.542	320.110974332159	870.027574811339	927.04855149015	69.7998169809019	
25	68.3224088275025	243.985	365.564099898183	941.9326265615	1010.38318677392	68.7887646414663	
26	57.8552158539296	229.89	396.256281514392	989.251137632872	1065.66263608496	68.1708436989247	
27	71.465468819567	195.75	492.563539234354	1122.41552220571	1225.73873426248	66.3060961453769	
28	68.3224088275025	174.275	579.307633248026	1224.18295087077	1354.33423907915	64.6755596148764	
29	65.4893548346553	167.571	611.667433074764	1259.66815404975	1400.32171553946	64.0997997106297	
30	71.465468819567	152.25	699.00550348966	1342.71191639771	1513.7648378613	62.4988611479886	
31	60.4132588474712	143.45	758.73686068566	1394.9440358011	1587.93906897594	61.4573811818599	
32	74.813527811114	122.148	941.652067467679	1530.66395731807	1797.12013132088	58.4005073049842	
33	71.465468819567	108.75	1094.88222711776	1619.42916847318	1954.81915351781	55.9377101929243	
34	68.3224088275025	104.565	1150.70685872164	1648.72961016113	2010.58091161015	55.0874457080161	
35	74.813527811114	95.004	1291.93592441288	1710.03461301537	2143.20246605383	52.9288512350213	
36	62.961308841038	89.514	1385.92305811852	1743.02541227119	2226.86333456899	51.510912881665	
37	78.4665958018909	76.2219	1647.98658751043	1814.85482547084	2451.43995034532	47.7588487285049	
38	74.813527811114	67.86	1846.39283391628	1838.53143475046	2605.64086813647	44.8777656534898	
39	71.465468819567	65.25	1914.4659834055	1841.28987493994	2656.22446438043	43.8838061046819	
40	78.4665958018909	59.2837	2086.89940881227	1844.95812601062	2785.50168358119	41.4788250761106	
41	65.4893548346553	55.857	2181.45560421979	1841.32394136766	2854.68429256821	40.1670562725695	
42	82.4796677917589	47.5632	2453.38383118173	1804.28139069285	3045.41024492669	36.3317171027208	
43	78.4665958018909	42.3455	2634.90646597674	1755.35535147245	3166.07082902279	33.671261378549	
44	74.813527811114	40.716	2688.17589422703	1732.72327651861	3198.22131680918	32.804700271254	
45	82.4796677917589	36.9936	2836.33865563437	1685.48680418273	3299.34580432544	30.7207876252938	
46	68.3224088275025	34.855	2910.66938692647	1649.27335247862	3345.45944097174	29.5372033148308	
47	86.6727447811724	29.6793	3119.18888571294	1540.02650710543	3478.65217395221	26.2767785104006	
48	82.4796677917589	26.424	3251.61985285644	1464.26734669686	3566.10579345213	24.2429597572396	
49	78.4665958018909	25.4073	3289.27043226124	1433.73827513474	3588.16184391596	23.5515863486038	
50	86.6727447811724	23.0839	3385.78506326808	1360.34788355541	3648.84733291802	21.8893792081794	
51	71.465468819567	21.75	3434.2036822568	1326.31165667954	3681.42058747302	21.1168830383209	
52	91.3608347693361	18.5202	3576.24903491502	1199.56753466463	3772.07097361012	18.5428008760095	
53	123.14842068908	18	3613.14674174781	1165.73076531383	3796.54548169806	17.8815628046055	
54	86.6727447811724	16.4885	3657.22691101312	1118.48539276035	3824.43698502888	17.0051421587139	
55	82.4796677917589	15.8544	3688.36987204215	1096.65308297923	3847.95014227005	16.5586511848225	
56	91.3608347693361	14.4046	3746.15308137801	1022.65498839534	3883.23140366472	15.2690242956054	
57	123.14842068908	14	3772.11689580776	987.058385552709	3899.1217129154	14.663926622869	
58	74.813527811114	13.572	3777.73710673641	995.010273176261	3906.57690201274	14.7558873744451	
59	128.551520675439	13.0347	3813.77990043494	941.739689973459	3928.3318053129	13.8706159086436	
60	96.663931755947	11.5569	3864.49826360091	877.538760738585	3962.88040520693	12.7936033188251	
61	91.3608347693361	10.289	3913.16191991373	811.361051200697	3996.39124296763	11.7138168373082	
62	128.551520675439	10.1381	3926.23075217401	785.360301526291	4004.00783247615	11.3115342106701	
63	123.14842068908	10	3927.59739461272	777.895031442113	4003.89085442035	11.2029451408436	
64	86.6727447811724	9.8931	3927.58222071028	791.40891929485	4006.52345281779	11.3925621755237	
65	134.754635659777	9.4392	3947.10619000855	740.797549635122	4016.02144973719	10.629683271522	
66	96.663931755947	8.9887	3965.97737184089	731.11368218876	4032.80345792323	10.4450050915308	
67	78.4665958018909	8.4691	3990.79147186564	709.543384851201	4053.3774049429	10.0815630748284	
68	134.754635659777	7.3416	4024.13086464638	608.927291082597	4069.94123564762	8.60465909743727	
69	128.551520675439	7.2415	4033.52340316281	606.634159783927	4078.8866186349	8.55307049803634	
70	103.102052739692	7.21143	4035.67135767772	613.875777085701	4082.09343068883	8.64909877231254	
71	142.032772641402	6.8355	4039.16169776206	572.062667536363	4079.47091131398	8.06113374824907	
72	96.663931755947	6.4205	4063.58911732916	561.786128564757	4102.23843391919	7.87117660534943	
73	91.3608347693361	6.1734	4071.21919632572	546.991082726393	4107.8005050286	7.65218391560894	
74	123.14842068908	6	4072.93280967717	519.666986955672	4105.95122346532	7.27110314500545	
75	103.102052739692	5.60889	4093.84641599014	500.717049176296	4124.35401500055	6.97319395365023	
76	142.032772641402	5.3165	4089.58700735992	464.051187218569	4115.83106979939	6.47374262928538	
77	82.4796677917589	5.2848	4113.8563029277	486.561962955302	4142.53017187961	6.74526110858588	
78	134.754635659777	5.244	4095.42844257319	462.113846864001	4121.41763665136	6.43782557351991	
79	150.88593461905	4.95	4095.50045921355	434.635559837679	4118.49876548407	6.05784826474147	
80	111.595208718249	4.5	4121.79036578789	408.917543225399	4142.02479189337	5.6657014641918	
81	128.551520675439	4.3449	4131.31074512513	394.981184215218	4150.14922727731	5.461263671072	
82	103.102052739692	4.00635	4146.40392207979	375.062470329279	4163.33248032008	5.16861681421247	
83	96.663931755947	3.8523	4152.38345870905	363.988934332397	4168.30617067377	5.00961890883116	
84	150.88593461905	3.85	4129.31117982667	345.670676043536	4143.75422004224	4.78515677988965	
85	142.032772641402	3.7975	4136.00365450376	345.087273034138	4150.37485729646	4.76942390033225	
86	111.595208718249	3.5	4153.34895252282	327.10890900554	4166.21023950703	4.50319798215043	
87	86.6727447811724	3.2977	4169.47220223441	318.953638862452	4181.6539633199	4.37445657659837	
88	134.754635659777	3.1464	4157.60107478151	292.506395641597	4167.87795988745	4.02439093647953	
89	150.88593461905	2.75	4157.25057477996	253.283425662905	4164.95916369222	3.48647620545664	
90	111.595208718249	2.5	4178.69618541925	238.728874076306	4185.50991939514	3.26975312725536	
91	103.102052739692	2.40381	4189.78772501416	233.137242652639	4196.2690755707	3.18489146400297	
92	142.032772641402	2.2785	4171.84579369782	211.164688981132	4177.18659533743	2.89764515112139	
93	91.3608347693361	2.0578	4199.82481818911	203.645524441594	4204.75920869463	2.77604373357819	
94	123.14842068908	2	4187.07624127711	190.671315235179	4191.41539348235	2.60733716000736	
95	150.88593461905	1.65	4177.2405155232	152.953513949149	4180.03984454191	2.09700097516902	
96	111.595208718249	1.5	4196.46212575991	142.058139848715	4198.86590498371	1.93882958122932	
97	128.551520675439	1.4483	4197.55395691574	135.844633870479	4199.75153857587	1.8536053817812	
98	96.663931755947	1.2841	4210.00553237558	123.525600066976	4211.81732230932	1.6806309525082	
99	134.754635659777	1.0488	4193.58921252759	100.113767167692	4194.78405282135	1.36756527678268	
100	103.102052739692	0.80127	4211.53828665105	74.9499927756736	4212.20515185867	1.01954789518078	
101	142.032772641402	0.7595	4190.78918132636	65.2129118114412	4191.29653999678	0.891508237031587	
102	150.88593461905	0.55	4185.1777531617	43.8794517644883	4185.40777366397	0.600694982894844	
103	111.595208718249	0.5	4200.295741922	41.7128525056418	4200.50286057184	0.568981800925665	
10/22/2021
Index	Time (s)	Frequency (Hz)	Z' (Ω)	-Z'' (Ω)	Z (Ω)	-Phase (°)	OCP value (V)
1	230.731523417459	10000	86.8178335134757	30.598950138648	92.0523327545862	19.4150087068518	0.00328388214111328
2	233.009565411707	6240.1	89.5455696467756	45.2616323430131	100.334562368705	26.8147358339119	
3	235.557610405274	3893.8	92.3141229339207	67.5601120977392	114.395218605141	36.1985399687548	
4	238.005658399093	2429.8	94.5907316785837	103.802367263735	140.436241650954	47.6584042255517	
5	252.401925362746	2069.01	94.7747884022152	120.909174499419	153.627110220871	51.9088382937337	
6	252.401925362746	1609.23	96.7727093267232	154.775584967746	182.538869758039	57.9845105837583	
7	240.488702392824	1516.2	97.8390058905927	163.871346086632	190.856724120226	59.1607847981491	
8	254.954972356301	1291.05	98.9048425909753	192.947768047876	216.8202229558	62.8603659513263	
9	252.401925362746	1149.45	102.542861950093	215.978342502033	239.085095660188	64.6024235211337	
10	254.954972356301	1004.15	105.769365043489	247.131485671341	268.814303547685	66.8296456140581	
11	242.966749386568	946.12	108.197586759142	261.985730714382	283.448832910723	67.5598455497297	
12	257.493019349893	805.626	113.766555095868	307.440834923399	327.815033268424	69.6933221896718	
13	254.954972356301	717.25	121.651391925895	345.740965497257	366.518589406435	70.6152199267203	
14	252.401925362746	689.67	125.045314865221	358.175469033582	379.375799685705	70.7550129736518	
15	257.493019349893	626.598	132.013313065589	394.774647701913	416.26258214584	71.5099772666181	
16	245.334795380589	590.38	137.113059122153	416.286971029609	438.286245769636	71.7695907255957	
17	259.956065343674	502.713	154.738203311671	487.169592203523	511.153717713048	72.3787480911776	
18	257.493019349893	447.57	171.645367988308	543.697745259783	570.148551302565	72.4790943187391	
19	254.954972356301	430.35	178.534265391793	564.504938044954	592.064446657731	72.4495574728254	
20	259.956065343674	390.999	196.746999024156	617.2496421515	647.847591923568	72.3204306216116	
21	248.032844373777	368.4	210.544682324857	652.869464189646	685.979300363029	72.1259433197026	
22	262.764115336584	313.695	252.885728428412	755.41960587557	796.624109969043	71.4914152540532	
23	259.956065343674	279.285	292.107400106269	838.639296572887	888.055517945308	70.7962042019175	
24	257.493019349893	268.542	310.267517274283	865.724668401563	919.644025563448	70.2828016402111	
25	262.764115336584	243.985	347.346597553113	942.384033669821	1004.35916172828	69.7669783578313	
26	252.401925362746	229.89	378.753251309228	990.102228286772	1060.07379358031	69.0661711414034	
27	265.907175328649	195.75	469.820625665519	1129.90316297878	1223.68810487402	67.4221608940497	
28	262.764115336584	174.275	555.858385386148	1234.10128493919	1353.50822904505	65.7524588718411	
29	259.956065343674	167.571	587.206992983055	1271.2089363472	1400.28004786799	65.2064629851614	
30	265.907175328649	152.25	671.759155839383	1360.30424410665	1517.13150385476	63.7184544257985	
31	254.954972356301	143.45	731.985011240254	1415.43172011707	1593.5021214275	62.6544306855638	
32	269.145234320474	122.148	913.653344645274	1563.96839220972	1811.28671557336	59.706991575026	
33	265.907175328649	108.75	1068.23143930471	1660.58403669895	1974.50189943145	57.2473668076233	
34	262.764115336584	104.565	1127.13388127092	1690.62601669334	2031.90726034168	56.3087624118616	
35	269.145234320474	95.004	1271.077557068	1763.57136104271	2173.89560503074	54.2181748983024	
36	257.493019349893	89.514	1367.83744004873	1798.91392607214	2259.88286772022	52.7517859725397	
37	272.868301311074	76.2219	1645.4652529563	1885.4905866777	2502.52485524855	48.8888376778289	
38	269.145234320474	67.86	1857.52041031703	1914.94906081198	2667.84781804529	45.8721515655209	
39	265.907175328649	65.25	1930.22276979725	1918.31366848565	2721.33924231115	44.8227016747907	
40	272.868301311074	59.2837	2116.70687630255	1928.5605717345	2863.52822214753	42.3370793651116	
41	259.956065343674	55.857	2220.48666299624	1916.27545312365	2933.03130443376	40.7941260594081	
42	279.234422295001	47.5632	2511.58167579592	1882.63016926325	3138.84355589985	36.8544755680004	
43	272.868301311074	42.3455	2708.55551837566	1822.44251110116	3264.59334410764	33.9345060163573	
44	269.145234320474	40.716	2768.90410079556	1797.16162850949	3301.00285343551	32.9856510065958	
45	279.234422295001	36.9936	2924.70124834503	1743.80586014355	3405.10444332357	30.8048274345052	
46	262.764115336584	34.855	2998.25246928154	1689.97167269293	3441.73243063104	29.4078787022002	
47	283.142494285134	29.6793	3228.27371523387	1579.45267021088	3593.94239212402	26.0704747282445	
48	279.234422295001	26.424	3356.85508092143	1480.3950610803	3668.79347622334	23.797793229795	
49	272.868301311074	25.4073	3391.32187129308	1441.27741688388	3684.88054448584	23.0250000493246	
50	283.142494285134	23.0839	3497.78725063077	1367.69004334263	3755.67460056562	21.3562830805071	
51	265.907175328649	21.75	3528.62100843148	1310.14958194252	3763.99497186276	20.3695704428594	
52	287.810581273348	18.5202	3678.92445231482	1186.67545077391	3865.57676825973	17.8776474761845	
53	319.748169192713	18	3715.98526678077	1165.19968419631	3894.38529256966	17.4095535195179	
54	283.142494285134	16.4885	3755.93466327412	1094.90502151255	3912.27072183374	16.2521076252824	
55	279.234422295001	15.8544	3772.33616111336	1062.66085879877	3919.15401754848	15.7324403668924	
56	287.810581273348	14.4046	3835.28472657509	993.236784887096	3961.80870875324	14.5191078684917	
57	319.748169192713	14	3864.52859231877	969.849420432651	3984.36809784975	14.0881023499379	
58	269.145234320474	13.572	3844.2352228025	949.603943498432	3959.78434990381	13.8754467916733	
59	325.371276178516	13.0347	3902.56815581535	922.862601083698	4010.20119087097	13.3046521159792	
60	293.183680259782	11.5569	3937.69547168355	842.159086841619	4026.74528065372	12.0720399938244	
61	287.810581273348	10.289	3980.08001356933	770.627873580547	4053.99854883464	10.958083894452	
62	325.371276178516	10.1381	4003.25523467822	759.133693119385	4074.59647548167	10.7374552026644	
63	319.748169192713	10	4002.60024691834	749.047551739368	4072.08558006797	10.5997410405512	
64	283.142494285134	9.8931	3991.46018611243	746.169514362223	4060.60628003802	10.5887386857113	
65	331.684391162577	9.4392	4019.80610704726	716.527802607035	4083.1670588115	10.1067868612194	
66	293.183680259782	8.9887	4025.33312884427	691.266886486871	4084.25717928296	9.74430585683308	
67	272.868301311074	8.4691	4027.09247562524	660.290653931847	4080.86480478184	9.31148585133463	
68	331.684391162577	7.3416	4085.7357208474	581.297500381548	4126.88056097559	8.09740490103164	
69	325.371276178516	7.2415	4094.77977142744	576.156498542547	4135.11519637654	8.00923059271417	
70	299.786800243111	7.21143	4078.77378442253	575.066396779229	4119.11361159135	8.02523635607085	
71	339.082531143899	6.8355	4104.43292363864	545.790046648716	4140.56232891979	7.57451228398583	
72	293.183680259782	6.4205	4106.73491808706	522.771613873107	4139.87461738964	7.25451619756027	
73	287.810581273348	6.1734	4112.17406879042	506.135453806863	4143.20512039081	7.01679988908915	
74	319.748169192713	6	4126.39638929286	490.087173619936	4155.39800732925	6.77322250390125	
75	299.786800243111	5.60889	4127.5773559656	463.029877365471	4153.46740649461	6.40065658940606	
76	339.082531143899	5.3165	4145.43361577656	436.23738295217	4168.3237538722	6.00731019067647	
77	279.234422295001	5.2848	4131.95267486607	444.578366529538	4155.80110584216	6.14112679201586	
78	331.684391162577	5.244	4146.7649456557	433.066825698328	4169.31725706252	5.96206415885669	
79	348.060694121231	4.95	4159.02806361275	407.102070908341	4178.90494388857	5.59052749829396	
80	308.354960221479	4.5	4161.12303485566	377.077474927193	4178.17332494762	5.17795283411404	
81	325.371276178516	4.3449	4175.23609076113	366.693918359793	4191.30777244482	5.01917558466115	
82	299.786800243111	4.00635	4168.38622304907	340.320338277516	4182.25556812955	4.66745795830209	
83	293.183680259782	3.8523	4176.68553577296	329.532995982619	4189.66514893212	4.51118909796032	
84	348.060694121231	3.85	4183.97471503026	322.345322190094	4196.3735442344	4.40552722359937	
85	339.082531143899	3.7975	4182.89925310071	321.972373202924	4195.27262173705	4.40157707334856	
86	308.354960221479	3.5	4185.45820807546	298.627757676958	4196.09806239099	4.08107397987513	
87	283.142494285134	3.2977	4185.66008958666	286.757082699576	4195.47136923099	3.91917582391268	
88	331.684391162577	3.1464	4196.01974095968	267.504030973111	4204.53803325766	3.64777553726318	
89	348.060694121231	2.75	4206.95618545664	231.984909046294	4213.34752238373	3.15627445394589	
90	308.354960221479	2.5	4203.96602936263	214.377278025274	4209.42846398042	2.91921555642261	
91	299.786800243111	2.40381	4200.88710713153	207.075548371558	4205.98772817959	2.82201331149212	
92	339.082531143899	2.2785	4211.80956677823	193.141806126188	4216.23571258514	2.62558478812331	
93	287.810581273348	2.0578	4210.95946804386	179.270762054145	4214.77373623255	2.4377483334737	
94	319.748169192713	2	4216.39697368182	170.102848019765	4219.82682329235	2.31024093777611	
95	348.060694121231	1.65	4217.51747132211	134.329423750653	4219.65614890508	1.82427414202623	
96	308.354960221479	1.5	4214.13755724706	124.283191419667	4215.96983659391	1.68927539336598	
97	325.371276178516	1.4483	4226.14548281838	120.015747728403	4227.84926666609	1.62667097214154	
98	293.183680259782	1.2841	4218.07388792075	105.734918012336	4219.39891416371	1.43593883979329	
99	331.684391162577	1.0488	4221.02238890699	83.4417818267974	4221.84705296254	1.13248376457503	
100	299.786800243111	0.80127	4212.41150880607	60.5145646133305	4212.84615575411	0.823041779415338	
101	339.082531143899	0.7595	4219.76551058165	57.20508335215	4220.15324198727	0.77668038020554	
102	348.060694121231	0.55	4217.01987066015	30.8601189439064	4217.13278620483	0.419282588810996	
103	308.354960221479	0.5	4217.47608252889	32.4435317223344	4217.60086891278	0.440747199909177	
10/22/2021
Index	Time (s)	Frequency (Hz)	Z' (Ω)	-Z'' (Ω)	Z (Ω)	-Phase (°)	OCP value (V)
